# vsim -c -coverage top "+UVM_TESTNAME=apb_ram_test" -voptargs="+acc" -assertdebug -l logs/apb_ram_test.log -do "coverage save -onexit cov/apb_ram_test.ucdb; run -all; quit" 
# Start time: 17:27:35 on Jan 15,2026
# ** Note: (vsim-8009) Loading existing optimized design _opt
# //  Questa Sim-64
# //  Version 10.7c win64 Aug 18 2018
# //
# //  Copyright 1991-2018 Mentor Graphics Corporation
# //  All Rights Reserved.
# //
# //  QuestaSim and its associated documentation contain trade
# //  secrets and commercial or financial information that are the property of
# //  Mentor Graphics Corporation and are privileged, confidential,
# //  and exempt from disclosure under the Freedom of Information Act,
# //  5 U.S.C. Section 552. Furthermore, this information
# //  is prohibited from disclosure under the Trade Secrets Act,
# //  18 U.S.C. Section 1905.
# //
# Loading sv_std.std
# Loading work.apb_if(fast)
# Loading mtiUvm.uvm_pkg
# Loading work.apb_ram_pkg(fast)
# Loading work.top_sv_unit(fast)
# Loading work.top(fast)
# Loading work.apb_if(fast)
# Loading work.apb_ram(fast)
# Loading mtiUvm.questa_uvm_pkg(fast)
# Loading D:/questasim_b_install/uvm-1.1d\win64\uvm_dpi.dll
# coverage save -onexit cov/apb_ram_test.ucdb
#  run -all
# ----------------------------------------------------------------
# UVM-1.1d
# (C) 2007-2013 Mentor Graphics Corporation
# (C) 2007-2013 Cadence Design Systems, Inc.
# (C) 2006-2013 Synopsys, Inc.
# (C) 2011-2013 Cypress Semiconductor Corp.
# ----------------------------------------------------------------
# 
#   ***********       IMPORTANT RELEASE NOTES         ************
# 
#   You are using a version of the UVM library that has been compiled
#   with `UVM_NO_DEPRECATED undefined.
#   See http://www.eda.org/svdb/view.php?id=3313 for more details.
# 
#   You are using a version of the UVM library that has been compiled
#   with `UVM_OBJECT_MUST_HAVE_CONSTRUCTOR undefined.
#   See http://www.eda.org/svdb/view.php?id=3770 for more details.
# 
#       (Specify +UVM_NO_RELNOTES to turn off this notice)
# 
# UVM_INFO verilog_src/questa_uvm_pkg-1.2/src/questa_uvm_pkg.sv(215) @ 0: reporter [Questa UVM] QUESTA_UVM-1.2.3
# UVM_INFO verilog_src/questa_uvm_pkg-1.2/src/questa_uvm_pkg.sv(216) @ 0: reporter [Questa UVM]  questa_uvm::init(+struct)
# UVM_INFO @ 0: reporter [RNTST] Running test apb_ram_test...
# UVM_INFO @ 0: reporter [UVMTOP] UVM testbench topology:
# --------------------------------------------------------------
# Name                       Type                    Size  Value
# --------------------------------------------------------------
# uvm_test_top               apb_ram_test            -     @471 
#   env                      apb_ram_env             -     @478 
#     a                      apb_ram_agent           -     @489 
#       d                    apb_ram_driver          -     @527 
#         rsp_port           uvm_analysis_port       -     @542 
#         seq_item_port      uvm_seq_item_pull_port  -     @534 
#       m                    apb_ram_monitor         -     @520 
#         item_send_port     uvm_analysis_port       -     @668 
#       seqr                 uvm_sequencer           -     @550 
#         rsp_export         uvm_analysis_export     -     @557 
#         seq_item_export    uvm_seq_item_pull_imp   -     @651 
#         arbitration_queue  array                   0     -    
#         lock_queue         array                   0     -    
#         num_last_reqs      integral                32    'd1  
#         num_last_rsps      integral                32    'd1  
#     cov                    apb_ram_coverage        -     @503 
#       analysis_imp         uvm_analysis_imp        -     @510 
#     s                      apb_ram_scoreboard      -     @496 
#       item_recv_imp        uvm_analysis_imp        -     @682 
# --------------------------------------------------------------
# 
# UVM_INFO ../uvc/env/apb_ram_driver.sv(32) @ 0: uvm_test_top.env.a.d [DRV] System Reset : Start of Simulation
# UVM_INFO ../uvc/env/apb_ram_driver.sv(32) @ 10: uvm_test_top.env.a.d [DRV] System Reset : Start of Simulation
# UVM_INFO ../uvc/env/apb_ram_scoreboard.sv(23) @ 10: uvm_test_top.env.s [SCO] SYSTEM RESET DETECTED
# ----------------------------------------------------------------
# UVM_INFO ../uvc/env/apb_ram_scoreboard.sv(23) @ 30: uvm_test_top.env.s [SCO] SYSTEM RESET DETECTED
# ----------------------------------------------------------------
# UVM_INFO ../uvc/env/apb_ram_driver.sv(32) @ 30: uvm_test_top.env.a.d [DRV] System Reset : Start of Simulation
# UVM_INFO ../uvc/env/apb_ram_driver.sv(32) @ 50: uvm_test_top.env.a.d [DRV] System Reset : Start of Simulation
# UVM_INFO ../uvc/env/apb_ram_scoreboard.sv(23) @ 50: uvm_test_top.env.s [SCO] SYSTEM RESET DETECTED
# ----------------------------------------------------------------
# UVM_INFO ../uvc/env/apb_ram_scoreboard.sv(23) @ 70: uvm_test_top.env.s [SCO] SYSTEM RESET DETECTED
# ----------------------------------------------------------------
# UVM_INFO ../uvc/env/apb_ram_driver.sv(32) @ 70: uvm_test_top.env.a.d [DRV] System Reset : Start of Simulation
# UVM_INFO ../uvc/env/apb_ram_scoreboard.sv(23) @ 90: uvm_test_top.env.s [SCO] SYSTEM RESET DETECTED
# ----------------------------------------------------------------
# UVM_INFO ../uvc/env/apb_ram_driver.sv(78) @ 110: uvm_test_top.env.a.d [DRV] mode:readd, addr:4294967295, wdata:3777248807, rdata:0, slverr:0
# ** Error: APB SVA: Invalid address but PSLVERR not asserted
#    Time: 130 ns Started: 130 ns  Scope: top.vif.a_slverr_on_invalid_addr File: ../tb/apb_if.sv Line: 76 Expr: pslverr
# ** Error: APB SVA: Invalid address but PSLVERR not asserted
#    Time: 150 ns Started: 150 ns  Scope: top.vif.a_slverr_on_invalid_addr File: ../tb/apb_if.sv Line: 76 Expr: pslverr
# UVM_INFO ../uvc/env/apb_ram_scoreboard.sv(41) @ 170: uvm_test_top.env.s [SCO] SLV ERROR during READ OP
# ----------------------------------------------------------------
# ** Warning: APB SVA: PRDATA is unknown during valid read
#    Time: 170 ns Started: 170 ns  Scope: top.vif.a_prdata_valid_on_read File: ../tb/apb_if.sv Line: 60 Expr: ~$isunknown(prdata)
# UVM_INFO ../uvc/env/apb_ram_scoreboard.sv(23) @ 210: uvm_test_top.env.s [SCO] SYSTEM RESET DETECTED
# ----------------------------------------------------------------
# UVM_INFO ../uvc/env/apb_ram_driver.sv(64) @ 230: uvm_test_top.env.a.d [DRV] mode:writed, addr:4294967295, wdata:4281818903, rdata:0, slverr:0
# ** Error: APB SVA: Invalid address but PSLVERR not asserted
#    Time: 250 ns Started: 250 ns  Scope: top.vif.a_slverr_on_invalid_addr File: ../tb/apb_if.sv Line: 76 Expr: pslverr
# ** Error: APB SVA: Invalid address but PSLVERR not asserted
#    Time: 270 ns Started: 270 ns  Scope: top.vif.a_slverr_on_invalid_addr File: ../tb/apb_if.sv Line: 76 Expr: pslverr
# UVM_INFO ../uvc/env/apb_ram_scoreboard.sv(29) @ 290: uvm_test_top.env.s [SCO] SLV ERROR during WRITE OP
# ----------------------------------------------------------------
# UVM_INFO ../uvc/env/apb_ram_scoreboard.sv(23) @ 330: uvm_test_top.env.s [SCO] SYSTEM RESET DETECTED
# ----------------------------------------------------------------
# UVM_INFO ../uvc/env/apb_ram_scoreboard.sv(23) @ 350: uvm_test_top.env.s [SCO] SYSTEM RESET DETECTED
# ----------------------------------------------------------------
# UVM_INFO ../uvc/env/apb_ram_scoreboard.sv(23) @ 370: uvm_test_top.env.s [SCO] SYSTEM RESET DETECTED
# ----------------------------------------------------------------
# UVM_INFO ../uvc/env/apb_ram_scoreboard.sv(23) @ 390: uvm_test_top.env.s [SCO] SYSTEM RESET DETECTED
# ----------------------------------------------------------------
# UVM_INFO ../uvc/env/apb_ram_driver.sv(78) @ 410: uvm_test_top.env.a.d [DRV] mode:readd, addr:4294967295, wdata:2337079852, rdata:0, slverr:0
# ** Error: APB SVA: Invalid address but PSLVERR not asserted
#    Time: 430 ns Started: 430 ns  Scope: top.vif.a_slverr_on_invalid_addr File: ../tb/apb_if.sv Line: 76 Expr: pslverr
# ** Error: APB SVA: Invalid address but PSLVERR not asserted
#    Time: 450 ns Started: 450 ns  Scope: top.vif.a_slverr_on_invalid_addr File: ../tb/apb_if.sv Line: 76 Expr: pslverr
# UVM_INFO ../uvc/env/apb_ram_scoreboard.sv(41) @ 470: uvm_test_top.env.s [SCO] SLV ERROR during READ OP
# ----------------------------------------------------------------
# ** Warning: APB SVA: PRDATA is unknown during valid read
#    Time: 470 ns Started: 470 ns  Scope: top.vif.a_prdata_valid_on_read File: ../tb/apb_if.sv Line: 60 Expr: ~$isunknown(prdata)
# UVM_INFO ../uvc/env/apb_ram_scoreboard.sv(23) @ 510: uvm_test_top.env.s [SCO] SYSTEM RESET DETECTED
# ----------------------------------------------------------------
# UVM_INFO ../uvc/env/apb_ram_scoreboard.sv(23) @ 530: uvm_test_top.env.s [SCO] SYSTEM RESET DETECTED
# ----------------------------------------------------------------
# UVM_INFO ../uvc/env/apb_ram_scoreboard.sv(23) @ 550: uvm_test_top.env.s [SCO] SYSTEM RESET DETECTED
# ----------------------------------------------------------------
# UVM_INFO ../uvc/env/apb_ram_scoreboard.sv(23) @ 570: uvm_test_top.env.s [SCO] SYSTEM RESET DETECTED
# ----------------------------------------------------------------
# UVM_INFO ../uvc/env/apb_ram_driver.sv(64) @ 590: uvm_test_top.env.a.d [DRV] mode:writed, addr:4294967295, wdata:2518359749, rdata:0, slverr:0
# ** Error: APB SVA: Invalid address but PSLVERR not asserted
#    Time: 610 ns Started: 610 ns  Scope: top.vif.a_slverr_on_invalid_addr File: ../tb/apb_if.sv Line: 76 Expr: pslverr
# ** Error: APB SVA: Invalid address but PSLVERR not asserted
#    Time: 630 ns Started: 630 ns  Scope: top.vif.a_slverr_on_invalid_addr File: ../tb/apb_if.sv Line: 76 Expr: pslverr
# UVM_INFO ../uvc/env/apb_ram_scoreboard.sv(29) @ 650: uvm_test_top.env.s [SCO] SLV ERROR during WRITE OP
# ----------------------------------------------------------------
# UVM_INFO ../uvc/env/apb_ram_scoreboard.sv(23) @ 690: uvm_test_top.env.s [SCO] SYSTEM RESET DETECTED
# ----------------------------------------------------------------
# UVM_INFO ../uvc/env/apb_ram_scoreboard.sv(23) @ 710: uvm_test_top.env.s [SCO] SYSTEM RESET DETECTED
# ----------------------------------------------------------------
# UVM_INFO ../uvc/env/apb_ram_scoreboard.sv(23) @ 730: uvm_test_top.env.s [SCO] SYSTEM RESET DETECTED
# ----------------------------------------------------------------
# UVM_INFO ../uvc/env/apb_ram_scoreboard.sv(23) @ 750: uvm_test_top.env.s [SCO] SYSTEM RESET DETECTED
# ----------------------------------------------------------------
# UVM_INFO ../uvc/env/apb_ram_scoreboard.sv(23) @ 770: uvm_test_top.env.s [SCO] SYSTEM RESET DETECTED
# ----------------------------------------------------------------
# UVM_INFO ../uvc/env/apb_ram_scoreboard.sv(23) @ 790: uvm_test_top.env.s [SCO] SYSTEM RESET DETECTED
# ----------------------------------------------------------------
# UVM_INFO ../uvc/env/apb_ram_scoreboard.sv(23) @ 810: uvm_test_top.env.s [SCO] SYSTEM RESET DETECTED
# ----------------------------------------------------------------
# UVM_INFO ../uvc/env/apb_ram_driver.sv(64) @ 830: uvm_test_top.env.a.d [DRV] mode:writed, addr:4294967295, wdata:48946881, rdata:0, slverr:0
# ** Error: APB SVA: Invalid address but PSLVERR not asserted
#    Time: 850 ns Started: 850 ns  Scope: top.vif.a_slverr_on_invalid_addr File: ../tb/apb_if.sv Line: 76 Expr: pslverr
# ** Error: APB SVA: Invalid address but PSLVERR not asserted
#    Time: 870 ns Started: 870 ns  Scope: top.vif.a_slverr_on_invalid_addr File: ../tb/apb_if.sv Line: 76 Expr: pslverr
# UVM_INFO ../uvc/env/apb_ram_scoreboard.sv(29) @ 890: uvm_test_top.env.s [SCO] SLV ERROR during WRITE OP
# ----------------------------------------------------------------
# UVM_INFO ../uvc/env/apb_ram_driver.sv(78) @ 930: uvm_test_top.env.a.d [DRV] mode:readd, addr:0, wdata:3254385158, rdata:0, slverr:0
# UVM_INFO ../uvc/env/apb_ram_scoreboard.sv(47) @ 990: uvm_test_top.env.s [SCO] DATA MATCHED : addr:0, rdata:0
# ----------------------------------------------------------------
# UVM_INFO ../uvc/env/apb_ram_driver.sv(78) @ 1010: uvm_test_top.env.a.d [DRV] mode:readd, addr:4294967295, wdata:3524547497, rdata:0, slverr:0
# ** Error: APB SVA: Invalid address but PSLVERR not asserted
#    Time: 1030 ns Started: 1030 ns  Scope: top.vif.a_slverr_on_invalid_addr File: ../tb/apb_if.sv Line: 76 Expr: pslverr
# UVM_INFO ../uvc/env/apb_ram_scoreboard.sv(41) @ 1050: uvm_test_top.env.s [SCO] SLV ERROR during READ OP
# ----------------------------------------------------------------
# ** Warning: APB SVA: PRDATA is unknown during valid read
#    Time: 1050 ns Started: 1050 ns  Scope: top.vif.a_prdata_valid_on_read File: ../tb/apb_if.sv Line: 60 Expr: ~$isunknown(prdata)
# UVM_INFO ../uvc/env/apb_ram_driver.sv(78) @ 1090: uvm_test_top.env.a.d [DRV] mode:readd, addr:0, wdata:3483282630, rdata:0, slverr:0
# UVM_INFO ../uvc/env/apb_ram_scoreboard.sv(47) @ 1150: uvm_test_top.env.s [SCO] DATA MATCHED : addr:0, rdata:0
# ----------------------------------------------------------------
# UVM_INFO verilog_src/uvm-1.1d/src/base/uvm_objection.svh(1267) @ 1150: reporter [TEST_DONE] 'run' phase is ready to proceed to the 'extract' phase
# UVM_INFO ../uvc/tests/base_test.sv(40) @ 1150: uvm_test_top [BASE_TEST] *** TEST PASSED ***
# 
# --- UVM Report Summary ---
# 
# ** Report counts by severity
# UVM_INFO :   48
# UVM_WARNING :    0
# UVM_ERROR :    0
# UVM_FATAL :    0
# ** Report counts by id
# [BASE_TEST]     1
# [DRV]    13
# [Questa UVM]     2
# [RNTST]     1
# [SCO]    29
# [TEST_DONE]     1
# [UVMTOP]     1
# ** Note: $finish    : D:/questasim_b_install/win64/../verilog_src/uvm-1.1d/src/base/uvm_root.svh(430)
#    Time: 1150 ns  Iteration: 62  Instance: /top
# Saving coverage database on exit...
# End time: 17:27:39 on Jan 15,2026, Elapsed time: 0:00:04
# Errors: 11, Warnings: 3
