# vsim -c -coverage top "+UVM_TESTNAME=read_err_test" -voptargs="+acc" -assertdebug -l logs/read_err_test.log -do "coverage save -onexit cov/read_err_test.ucdb; run -all; quit" 
# Start time: 17:27:16 on Jan 15,2026
# ** Note: (vsim-8009) Loading existing optimized design _opt
# //  Questa Sim-64
# //  Version 10.7c win64 Aug 18 2018
# //
# //  Copyright 1991-2018 Mentor Graphics Corporation
# //  All Rights Reserved.
# //
# //  QuestaSim and its associated documentation contain trade
# //  secrets and commercial or financial information that are the property of
# //  Mentor Graphics Corporation and are privileged, confidential,
# //  and exempt from disclosure under the Freedom of Information Act,
# //  5 U.S.C. Section 552. Furthermore, this information
# //  is prohibited from disclosure under the Trade Secrets Act,
# //  18 U.S.C. Section 1905.
# //
# Loading sv_std.std
# Loading work.apb_if(fast)
# Loading mtiUvm.uvm_pkg
# Loading work.apb_ram_pkg(fast)
# Loading work.top_sv_unit(fast)
# Loading work.top(fast)
# Loading work.apb_if(fast)
# Loading work.apb_ram(fast)
# Loading mtiUvm.questa_uvm_pkg(fast)
# Loading D:/questasim_b_install/uvm-1.1d\win64\uvm_dpi.dll
# coverage save -onexit cov/read_err_test.ucdb
#  run -all
# ----------------------------------------------------------------
# UVM-1.1d
# (C) 2007-2013 Mentor Graphics Corporation
# (C) 2007-2013 Cadence Design Systems, Inc.
# (C) 2006-2013 Synopsys, Inc.
# (C) 2011-2013 Cypress Semiconductor Corp.
# ----------------------------------------------------------------
# 
#   ***********       IMPORTANT RELEASE NOTES         ************
# 
#   You are using a version of the UVM library that has been compiled
#   with `UVM_NO_DEPRECATED undefined.
#   See http://www.eda.org/svdb/view.php?id=3313 for more details.
# 
#   You are using a version of the UVM library that has been compiled
#   with `UVM_OBJECT_MUST_HAVE_CONSTRUCTOR undefined.
#   See http://www.eda.org/svdb/view.php?id=3770 for more details.
# 
#       (Specify +UVM_NO_RELNOTES to turn off this notice)
# 
# UVM_INFO verilog_src/questa_uvm_pkg-1.2/src/questa_uvm_pkg.sv(215) @ 0: reporter [Questa UVM] QUESTA_UVM-1.2.3
# UVM_INFO verilog_src/questa_uvm_pkg-1.2/src/questa_uvm_pkg.sv(216) @ 0: reporter [Questa UVM]  questa_uvm::init(+struct)
# UVM_INFO @ 0: reporter [RNTST] Running test read_err_test...
# UVM_INFO @ 0: reporter [UVMTOP] UVM testbench topology:
# --------------------------------------------------------------
# Name                       Type                    Size  Value
# --------------------------------------------------------------
# uvm_test_top               read_err_test           -     @471 
#   env                      apb_ram_env             -     @478 
#     a                      apb_ram_agent           -     @485 
#       d                    apb_ram_driver          -     @523 
#         rsp_port           uvm_analysis_port       -     @538 
#         seq_item_port      uvm_seq_item_pull_port  -     @530 
#       m                    apb_ram_monitor         -     @516 
#         item_send_port     uvm_analysis_port       -     @664 
#       seqr                 uvm_sequencer           -     @546 
#         rsp_export         uvm_analysis_export     -     @553 
#         seq_item_export    uvm_seq_item_pull_imp   -     @647 
#         arbitration_queue  array                   0     -    
#         lock_queue         array                   0     -    
#         num_last_reqs      integral                32    'd1  
#         num_last_rsps      integral                32    'd1  
#     cov                    apb_ram_coverage        -     @499 
#       analysis_imp         uvm_analysis_imp        -     @506 
#     s                      apb_ram_scoreboard      -     @492 
#       item_recv_imp        uvm_analysis_imp        -     @678 
# --------------------------------------------------------------
# 
# UVM_INFO ../uvc/env/apb_ram_driver.sv(32) @ 0: uvm_test_top.env.a.d [DRV] System Reset : Start of Simulation
# UVM_INFO ../uvc/env/apb_ram_driver.sv(32) @ 10: uvm_test_top.env.a.d [DRV] System Reset : Start of Simulation
# UVM_INFO ../uvc/env/apb_ram_scoreboard.sv(23) @ 10: uvm_test_top.env.s [SCO] SYSTEM RESET DETECTED
# ----------------------------------------------------------------
# UVM_INFO ../uvc/env/apb_ram_scoreboard.sv(23) @ 30: uvm_test_top.env.s [SCO] SYSTEM RESET DETECTED
# ----------------------------------------------------------------
# UVM_INFO ../uvc/env/apb_ram_driver.sv(32) @ 30: uvm_test_top.env.a.d [DRV] System Reset : Start of Simulation
# UVM_INFO ../uvc/env/apb_ram_driver.sv(32) @ 50: uvm_test_top.env.a.d [DRV] System Reset : Start of Simulation
# UVM_INFO ../uvc/env/apb_ram_scoreboard.sv(23) @ 50: uvm_test_top.env.s [SCO] SYSTEM RESET DETECTED
# ----------------------------------------------------------------
# UVM_INFO ../uvc/env/apb_ram_scoreboard.sv(23) @ 70: uvm_test_top.env.s [SCO] SYSTEM RESET DETECTED
# ----------------------------------------------------------------
# UVM_INFO ../uvc/env/apb_ram_driver.sv(32) @ 70: uvm_test_top.env.a.d [DRV] System Reset : Start of Simulation
# UVM_INFO ../uvc/env/apb_ram_scoreboard.sv(23) @ 90: uvm_test_top.env.s [SCO] SYSTEM RESET DETECTED
# ----------------------------------------------------------------
# UVM_INFO ../uvc/env/apb_ram_driver.sv(78) @ 110: uvm_test_top.env.a.d [DRV] mode:readd, addr:41, wdata:3777248807, rdata:0, slverr:0
# ** Error: APB SVA: Invalid address but PSLVERR not asserted
#    Time: 130 ns Started: 130 ns  Scope: top.vif.a_slverr_on_invalid_addr File: ../tb/apb_if.sv Line: 76 Expr: pslverr
# ** Error: APB SVA: Invalid address but PSLVERR not asserted
#    Time: 150 ns Started: 150 ns  Scope: top.vif.a_slverr_on_invalid_addr File: ../tb/apb_if.sv Line: 76 Expr: pslverr
# UVM_INFO ../uvc/env/apb_ram_scoreboard.sv(41) @ 170: uvm_test_top.env.s [SCO] SLV ERROR during READ OP
# ----------------------------------------------------------------
# ** Warning: APB SVA: PRDATA is unknown during valid read
#    Time: 170 ns Started: 170 ns  Scope: top.vif.a_prdata_valid_on_read File: ../tb/apb_if.sv Line: 60 Expr: ~$isunknown(prdata)
# UVM_INFO ../uvc/env/apb_ram_driver.sv(78) @ 190: uvm_test_top.env.a.d [DRV] mode:readd, addr:70, wdata:2285552022, rdata:0, slverr:0
# ** Error: APB SVA: Invalid address but PSLVERR not asserted
#    Time: 210 ns Started: 210 ns  Scope: top.vif.a_slverr_on_invalid_addr File: ../tb/apb_if.sv Line: 76 Expr: pslverr
# UVM_INFO ../uvc/env/apb_ram_scoreboard.sv(41) @ 230: uvm_test_top.env.s [SCO] SLV ERROR during READ OP
# ----------------------------------------------------------------
# ** Warning: APB SVA: PRDATA is unknown during valid read
#    Time: 230 ns Started: 230 ns  Scope: top.vif.a_prdata_valid_on_read File: ../tb/apb_if.sv Line: 60 Expr: ~$isunknown(prdata)
# UVM_INFO ../uvc/env/apb_ram_driver.sv(78) @ 250: uvm_test_top.env.a.d [DRV] mode:readd, addr:90, wdata:4281818903, rdata:0, slverr:0
# ** Error: APB SVA: Invalid address but PSLVERR not asserted
#    Time: 270 ns Started: 270 ns  Scope: top.vif.a_slverr_on_invalid_addr File: ../tb/apb_if.sv Line: 76 Expr: pslverr
# UVM_INFO ../uvc/env/apb_ram_scoreboard.sv(41) @ 290: uvm_test_top.env.s [SCO] SLV ERROR during READ OP
# ----------------------------------------------------------------
# ** Warning: APB SVA: PRDATA is unknown during valid read
#    Time: 290 ns Started: 290 ns  Scope: top.vif.a_prdata_valid_on_read File: ../tb/apb_if.sv Line: 60 Expr: ~$isunknown(prdata)
# UVM_INFO ../uvc/env/apb_ram_driver.sv(78) @ 310: uvm_test_top.env.a.d [DRV] mode:readd, addr:84, wdata:1051481594, rdata:0, slverr:0
# ** Error: APB SVA: Invalid address but PSLVERR not asserted
#    Time: 330 ns Started: 330 ns  Scope: top.vif.a_slverr_on_invalid_addr File: ../tb/apb_if.sv Line: 76 Expr: pslverr
# UVM_INFO ../uvc/env/apb_ram_scoreboard.sv(41) @ 350: uvm_test_top.env.s [SCO] SLV ERROR during READ OP
# ----------------------------------------------------------------
# ** Warning: APB SVA: PRDATA is unknown during valid read
#    Time: 350 ns Started: 350 ns  Scope: top.vif.a_prdata_valid_on_read File: ../tb/apb_if.sv Line: 60 Expr: ~$isunknown(prdata)
# UVM_INFO ../uvc/env/apb_ram_driver.sv(78) @ 370: uvm_test_top.env.a.d [DRV] mode:readd, addr:63, wdata:1430793613, rdata:0, slverr:0
# ** Error: APB SVA: Invalid address but PSLVERR not asserted
#    Time: 390 ns Started: 390 ns  Scope: top.vif.a_slverr_on_invalid_addr File: ../tb/apb_if.sv Line: 76 Expr: pslverr
# UVM_INFO ../uvc/env/apb_ram_scoreboard.sv(41) @ 410: uvm_test_top.env.s [SCO] SLV ERROR during READ OP
# ----------------------------------------------------------------
# ** Warning: APB SVA: PRDATA is unknown during valid read
#    Time: 410 ns Started: 410 ns  Scope: top.vif.a_prdata_valid_on_read File: ../tb/apb_if.sv Line: 60 Expr: ~$isunknown(prdata)
# UVM_INFO ../uvc/env/apb_ram_driver.sv(78) @ 430: uvm_test_top.env.a.d [DRV] mode:readd, addr:54, wdata:3171452607, rdata:0, slverr:0
# ** Error: APB SVA: Invalid address but PSLVERR not asserted
#    Time: 450 ns Started: 450 ns  Scope: top.vif.a_slverr_on_invalid_addr File: ../tb/apb_if.sv Line: 76 Expr: pslverr
# UVM_INFO ../uvc/env/apb_ram_scoreboard.sv(41) @ 470: uvm_test_top.env.s [SCO] SLV ERROR during READ OP
# ----------------------------------------------------------------
# ** Warning: APB SVA: PRDATA is unknown during valid read
#    Time: 470 ns Started: 470 ns  Scope: top.vif.a_prdata_valid_on_read File: ../tb/apb_if.sv Line: 60 Expr: ~$isunknown(prdata)
# UVM_INFO ../uvc/env/apb_ram_driver.sv(78) @ 490: uvm_test_top.env.a.d [DRV] mode:readd, addr:64, wdata:2337079852, rdata:0, slverr:0
# ** Error: APB SVA: Invalid address but PSLVERR not asserted
#    Time: 510 ns Started: 510 ns  Scope: top.vif.a_slverr_on_invalid_addr File: ../tb/apb_if.sv Line: 76 Expr: pslverr
# UVM_INFO ../uvc/env/apb_ram_scoreboard.sv(41) @ 530: uvm_test_top.env.s [SCO] SLV ERROR during READ OP
# ----------------------------------------------------------------
# ** Warning: APB SVA: PRDATA is unknown during valid read
#    Time: 530 ns Started: 530 ns  Scope: top.vif.a_prdata_valid_on_read File: ../tb/apb_if.sv Line: 60 Expr: ~$isunknown(prdata)
# UVM_INFO ../uvc/env/apb_ram_driver.sv(78) @ 550: uvm_test_top.env.a.d [DRV] mode:readd, addr:81, wdata:3353941321, rdata:0, slverr:0
# ** Error: APB SVA: Invalid address but PSLVERR not asserted
#    Time: 570 ns Started: 570 ns  Scope: top.vif.a_slverr_on_invalid_addr File: ../tb/apb_if.sv Line: 76 Expr: pslverr
# UVM_INFO ../uvc/env/apb_ram_scoreboard.sv(41) @ 590: uvm_test_top.env.s [SCO] SLV ERROR during READ OP
# ----------------------------------------------------------------
# ** Warning: APB SVA: PRDATA is unknown during valid read
#    Time: 590 ns Started: 590 ns  Scope: top.vif.a_prdata_valid_on_read File: ../tb/apb_if.sv Line: 60 Expr: ~$isunknown(prdata)
# UVM_INFO ../uvc/env/apb_ram_driver.sv(78) @ 610: uvm_test_top.env.a.d [DRV] mode:readd, addr:47, wdata:2729742768, rdata:0, slverr:0
# ** Error: APB SVA: Invalid address but PSLVERR not asserted
#    Time: 630 ns Started: 630 ns  Scope: top.vif.a_slverr_on_invalid_addr File: ../tb/apb_if.sv Line: 76 Expr: pslverr
# UVM_INFO ../uvc/env/apb_ram_scoreboard.sv(41) @ 650: uvm_test_top.env.s [SCO] SLV ERROR during READ OP
# ----------------------------------------------------------------
# ** Warning: APB SVA: PRDATA is unknown during valid read
#    Time: 650 ns Started: 650 ns  Scope: top.vif.a_prdata_valid_on_read File: ../tb/apb_if.sv Line: 60 Expr: ~$isunknown(prdata)
# UVM_INFO ../uvc/env/apb_ram_driver.sv(78) @ 670: uvm_test_top.env.a.d [DRV] mode:readd, addr:66, wdata:2528254870, rdata:0, slverr:0
# ** Error: APB SVA: Invalid address but PSLVERR not asserted
#    Time: 690 ns Started: 690 ns  Scope: top.vif.a_slverr_on_invalid_addr File: ../tb/apb_if.sv Line: 76 Expr: pslverr
# UVM_INFO ../uvc/env/apb_ram_scoreboard.sv(41) @ 710: uvm_test_top.env.s [SCO] SLV ERROR during READ OP
# ----------------------------------------------------------------
# ** Warning: APB SVA: PRDATA is unknown during valid read
#    Time: 710 ns Started: 710 ns  Scope: top.vif.a_prdata_valid_on_read File: ../tb/apb_if.sv Line: 60 Expr: ~$isunknown(prdata)
# UVM_INFO ../uvc/env/apb_ram_driver.sv(78) @ 730: uvm_test_top.env.a.d [DRV] mode:readd, addr:68, wdata:2518359749, rdata:0, slverr:0
# ** Error: APB SVA: Invalid address but PSLVERR not asserted
#    Time: 750 ns Started: 750 ns  Scope: top.vif.a_slverr_on_invalid_addr File: ../tb/apb_if.sv Line: 76 Expr: pslverr
# UVM_INFO ../uvc/env/apb_ram_scoreboard.sv(41) @ 770: uvm_test_top.env.s [SCO] SLV ERROR during READ OP
# ----------------------------------------------------------------
# ** Warning: APB SVA: PRDATA is unknown during valid read
#    Time: 770 ns Started: 770 ns  Scope: top.vif.a_prdata_valid_on_read File: ../tb/apb_if.sv Line: 60 Expr: ~$isunknown(prdata)
# UVM_INFO ../uvc/env/apb_ram_driver.sv(78) @ 790: uvm_test_top.env.a.d [DRV] mode:readd, addr:85, wdata:1888893185, rdata:0, slverr:0
# ** Error: APB SVA: Invalid address but PSLVERR not asserted
#    Time: 810 ns Started: 810 ns  Scope: top.vif.a_slverr_on_invalid_addr File: ../tb/apb_if.sv Line: 76 Expr: pslverr
# UVM_INFO ../uvc/env/apb_ram_scoreboard.sv(41) @ 830: uvm_test_top.env.s [SCO] SLV ERROR during READ OP
# ----------------------------------------------------------------
# ** Warning: APB SVA: PRDATA is unknown during valid read
#    Time: 830 ns Started: 830 ns  Scope: top.vif.a_prdata_valid_on_read File: ../tb/apb_if.sv Line: 60 Expr: ~$isunknown(prdata)
# UVM_INFO ../uvc/env/apb_ram_driver.sv(78) @ 850: uvm_test_top.env.a.d [DRV] mode:readd, addr:68, wdata:2912452960, rdata:0, slverr:0
# ** Error: APB SVA: Invalid address but PSLVERR not asserted
#    Time: 870 ns Started: 870 ns  Scope: top.vif.a_slverr_on_invalid_addr File: ../tb/apb_if.sv Line: 76 Expr: pslverr
# UVM_INFO ../uvc/env/apb_ram_scoreboard.sv(41) @ 890: uvm_test_top.env.s [SCO] SLV ERROR during READ OP
# ----------------------------------------------------------------
# ** Warning: APB SVA: PRDATA is unknown during valid read
#    Time: 890 ns Started: 890 ns  Scope: top.vif.a_prdata_valid_on_read File: ../tb/apb_if.sv Line: 60 Expr: ~$isunknown(prdata)
# UVM_INFO ../uvc/env/apb_ram_driver.sv(78) @ 910: uvm_test_top.env.a.d [DRV] mode:readd, addr:70, wdata:4191012750, rdata:0, slverr:0
# ** Error: APB SVA: Invalid address but PSLVERR not asserted
#    Time: 930 ns Started: 930 ns  Scope: top.vif.a_slverr_on_invalid_addr File: ../tb/apb_if.sv Line: 76 Expr: pslverr
# UVM_INFO ../uvc/env/apb_ram_scoreboard.sv(41) @ 950: uvm_test_top.env.s [SCO] SLV ERROR during READ OP
# ----------------------------------------------------------------
# ** Warning: APB SVA: PRDATA is unknown during valid read
#    Time: 950 ns Started: 950 ns  Scope: top.vif.a_prdata_valid_on_read File: ../tb/apb_if.sv Line: 60 Expr: ~$isunknown(prdata)
# UVM_INFO ../uvc/env/apb_ram_driver.sv(78) @ 970: uvm_test_top.env.a.d [DRV] mode:readd, addr:40, wdata:3892367503, rdata:0, slverr:0
# ** Error: APB SVA: Invalid address but PSLVERR not asserted
#    Time: 990 ns Started: 990 ns  Scope: top.vif.a_slverr_on_invalid_addr File: ../tb/apb_if.sv Line: 76 Expr: pslverr
# UVM_INFO ../uvc/env/apb_ram_scoreboard.sv(41) @ 1010: uvm_test_top.env.s [SCO] SLV ERROR during READ OP
# ----------------------------------------------------------------
# ** Warning: APB SVA: PRDATA is unknown during valid read
#    Time: 1010 ns Started: 1010 ns  Scope: top.vif.a_prdata_valid_on_read File: ../tb/apb_if.sv Line: 60 Expr: ~$isunknown(prdata)
# UVM_INFO ../uvc/env/apb_ram_driver.sv(78) @ 1030: uvm_test_top.env.a.d [DRV] mode:readd, addr:45, wdata:1981648891, rdata:0, slverr:0
# ** Error: APB SVA: Invalid address but PSLVERR not asserted
#    Time: 1050 ns Started: 1050 ns  Scope: top.vif.a_slverr_on_invalid_addr File: ../tb/apb_if.sv Line: 76 Expr: pslverr
# UVM_INFO ../uvc/env/apb_ram_scoreboard.sv(41) @ 1070: uvm_test_top.env.s [SCO] SLV ERROR during READ OP
# ----------------------------------------------------------------
# ** Warning: APB SVA: PRDATA is unknown during valid read
#    Time: 1070 ns Started: 1070 ns  Scope: top.vif.a_prdata_valid_on_read File: ../tb/apb_if.sv Line: 60 Expr: ~$isunknown(prdata)
# UVM_INFO ../uvc/env/apb_ram_driver.sv(78) @ 1090: uvm_test_top.env.a.d [DRV] mode:readd, addr:75, wdata:48946881, rdata:0, slverr:0
# ** Error: APB SVA: Invalid address but PSLVERR not asserted
#    Time: 1110 ns Started: 1110 ns  Scope: top.vif.a_slverr_on_invalid_addr File: ../tb/apb_if.sv Line: 76 Expr: pslverr
# UVM_INFO ../uvc/env/apb_ram_scoreboard.sv(41) @ 1130: uvm_test_top.env.s [SCO] SLV ERROR during READ OP
# ----------------------------------------------------------------
# ** Warning: APB SVA: PRDATA is unknown during valid read
#    Time: 1130 ns Started: 1130 ns  Scope: top.vif.a_prdata_valid_on_read File: ../tb/apb_if.sv Line: 60 Expr: ~$isunknown(prdata)
# UVM_INFO ../uvc/env/apb_ram_driver.sv(78) @ 1150: uvm_test_top.env.a.d [DRV] mode:readd, addr:88, wdata:3254385158, rdata:0, slverr:0
# ** Error: APB SVA: Invalid address but PSLVERR not asserted
#    Time: 1170 ns Started: 1170 ns  Scope: top.vif.a_slverr_on_invalid_addr File: ../tb/apb_if.sv Line: 76 Expr: pslverr
# UVM_INFO ../uvc/env/apb_ram_scoreboard.sv(41) @ 1190: uvm_test_top.env.s [SCO] SLV ERROR during READ OP
# ----------------------------------------------------------------
# ** Warning: APB SVA: PRDATA is unknown during valid read
#    Time: 1190 ns Started: 1190 ns  Scope: top.vif.a_prdata_valid_on_read File: ../tb/apb_if.sv Line: 60 Expr: ~$isunknown(prdata)
# UVM_INFO ../uvc/env/apb_ram_driver.sv(78) @ 1210: uvm_test_top.env.a.d [DRV] mode:readd, addr:70, wdata:3524547497, rdata:0, slverr:0
# ** Error: APB SVA: Invalid address but PSLVERR not asserted
#    Time: 1230 ns Started: 1230 ns  Scope: top.vif.a_slverr_on_invalid_addr File: ../tb/apb_if.sv Line: 76 Expr: pslverr
# UVM_INFO ../uvc/env/apb_ram_scoreboard.sv(41) @ 1250: uvm_test_top.env.s [SCO] SLV ERROR during READ OP
# ----------------------------------------------------------------
# ** Warning: APB SVA: PRDATA is unknown during valid read
#    Time: 1250 ns Started: 1250 ns  Scope: top.vif.a_prdata_valid_on_read File: ../tb/apb_if.sv Line: 60 Expr: ~$isunknown(prdata)
# UVM_INFO ../uvc/env/apb_ram_driver.sv(78) @ 1270: uvm_test_top.env.a.d [DRV] mode:readd, addr:92, wdata:3483282630, rdata:0, slverr:0
# ** Error: APB SVA: Invalid address but PSLVERR not asserted
#    Time: 1290 ns Started: 1290 ns  Scope: top.vif.a_slverr_on_invalid_addr File: ../tb/apb_if.sv Line: 76 Expr: pslverr
# UVM_INFO ../uvc/env/apb_ram_scoreboard.sv(41) @ 1310: uvm_test_top.env.s [SCO] SLV ERROR during READ OP
# ----------------------------------------------------------------
# ** Warning: APB SVA: PRDATA is unknown during valid read
#    Time: 1310 ns Started: 1310 ns  Scope: top.vif.a_prdata_valid_on_read File: ../tb/apb_if.sv Line: 60 Expr: ~$isunknown(prdata)
# UVM_INFO ../uvc/env/apb_ram_driver.sv(78) @ 1330: uvm_test_top.env.a.d [DRV] mode:readd, addr:94, wdata:2414337454, rdata:0, slverr:0
# ** Error: APB SVA: Invalid address but PSLVERR not asserted
#    Time: 1350 ns Started: 1350 ns  Scope: top.vif.a_slverr_on_invalid_addr File: ../tb/apb_if.sv Line: 76 Expr: pslverr
# UVM_INFO ../uvc/env/apb_ram_scoreboard.sv(41) @ 1370: uvm_test_top.env.s [SCO] SLV ERROR during READ OP
# ----------------------------------------------------------------
# ** Warning: APB SVA: PRDATA is unknown during valid read
#    Time: 1370 ns Started: 1370 ns  Scope: top.vif.a_prdata_valid_on_read File: ../tb/apb_if.sv Line: 60 Expr: ~$isunknown(prdata)
# UVM_INFO ../uvc/env/apb_ram_driver.sv(78) @ 1390: uvm_test_top.env.a.d [DRV] mode:readd, addr:73, wdata:114161314, rdata:0, slverr:0
# ** Error: APB SVA: Invalid address but PSLVERR not asserted
#    Time: 1410 ns Started: 1410 ns  Scope: top.vif.a_slverr_on_invalid_addr File: ../tb/apb_if.sv Line: 76 Expr: pslverr
# UVM_INFO ../uvc/env/apb_ram_scoreboard.sv(41) @ 1430: uvm_test_top.env.s [SCO] SLV ERROR during READ OP
# ----------------------------------------------------------------
# ** Warning: APB SVA: PRDATA is unknown during valid read
#    Time: 1430 ns Started: 1430 ns  Scope: top.vif.a_prdata_valid_on_read File: ../tb/apb_if.sv Line: 60 Expr: ~$isunknown(prdata)
# UVM_INFO ../uvc/env/apb_ram_driver.sv(78) @ 1450: uvm_test_top.env.a.d [DRV] mode:readd, addr:32, wdata:2384080836, rdata:0, slverr:0
# ** Error: APB SVA: Invalid address but PSLVERR not asserted
#    Time: 1470 ns Started: 1470 ns  Scope: top.vif.a_slverr_on_invalid_addr File: ../tb/apb_if.sv Line: 76 Expr: pslverr
# UVM_INFO ../uvc/env/apb_ram_scoreboard.sv(41) @ 1490: uvm_test_top.env.s [SCO] SLV ERROR during READ OP
# ----------------------------------------------------------------
# ** Warning: APB SVA: PRDATA is unknown during valid read
#    Time: 1490 ns Started: 1490 ns  Scope: top.vif.a_prdata_valid_on_read File: ../tb/apb_if.sv Line: 60 Expr: ~$isunknown(prdata)
# UVM_INFO ../uvc/env/apb_ram_driver.sv(78) @ 1510: uvm_test_top.env.a.d [DRV] mode:readd, addr:35, wdata:616727898, rdata:0, slverr:0
# ** Error: APB SVA: Invalid address but PSLVERR not asserted
#    Time: 1530 ns Started: 1530 ns  Scope: top.vif.a_slverr_on_invalid_addr File: ../tb/apb_if.sv Line: 76 Expr: pslverr
# UVM_INFO ../uvc/env/apb_ram_scoreboard.sv(41) @ 1550: uvm_test_top.env.s [SCO] SLV ERROR during READ OP
# ----------------------------------------------------------------
# ** Warning: APB SVA: PRDATA is unknown during valid read
#    Time: 1550 ns Started: 1550 ns  Scope: top.vif.a_prdata_valid_on_read File: ../tb/apb_if.sv Line: 60 Expr: ~$isunknown(prdata)
# UVM_INFO ../uvc/env/apb_ram_driver.sv(78) @ 1570: uvm_test_top.env.a.d [DRV] mode:readd, addr:71, wdata:4230033719, rdata:0, slverr:0
# ** Error: APB SVA: Invalid address but PSLVERR not asserted
#    Time: 1590 ns Started: 1590 ns  Scope: top.vif.a_slverr_on_invalid_addr File: ../tb/apb_if.sv Line: 76 Expr: pslverr
# UVM_INFO ../uvc/env/apb_ram_scoreboard.sv(41) @ 1610: uvm_test_top.env.s [SCO] SLV ERROR during READ OP
# ----------------------------------------------------------------
# ** Warning: APB SVA: PRDATA is unknown during valid read
#    Time: 1610 ns Started: 1610 ns  Scope: top.vif.a_prdata_valid_on_read File: ../tb/apb_if.sv Line: 60 Expr: ~$isunknown(prdata)
# UVM_INFO ../uvc/env/apb_ram_driver.sv(78) @ 1630: uvm_test_top.env.a.d [DRV] mode:readd, addr:56, wdata:3617292467, rdata:0, slverr:0
# ** Error: APB SVA: Invalid address but PSLVERR not asserted
#    Time: 1650 ns Started: 1650 ns  Scope: top.vif.a_slverr_on_invalid_addr File: ../tb/apb_if.sv Line: 76 Expr: pslverr
# UVM_INFO ../uvc/env/apb_ram_scoreboard.sv(41) @ 1670: uvm_test_top.env.s [SCO] SLV ERROR during READ OP
# ----------------------------------------------------------------
# ** Warning: APB SVA: PRDATA is unknown during valid read
#    Time: 1670 ns Started: 1670 ns  Scope: top.vif.a_prdata_valid_on_read File: ../tb/apb_if.sv Line: 60 Expr: ~$isunknown(prdata)
# UVM_INFO ../uvc/env/apb_ram_driver.sv(78) @ 1690: uvm_test_top.env.a.d [DRV] mode:readd, addr:84, wdata:938073799, rdata:0, slverr:0
# ** Error: APB SVA: Invalid address but PSLVERR not asserted
#    Time: 1710 ns Started: 1710 ns  Scope: top.vif.a_slverr_on_invalid_addr File: ../tb/apb_if.sv Line: 76 Expr: pslverr
# UVM_INFO ../uvc/env/apb_ram_scoreboard.sv(41) @ 1730: uvm_test_top.env.s [SCO] SLV ERROR during READ OP
# ----------------------------------------------------------------
# ** Warning: APB SVA: PRDATA is unknown during valid read
#    Time: 1730 ns Started: 1730 ns  Scope: top.vif.a_prdata_valid_on_read File: ../tb/apb_if.sv Line: 60 Expr: ~$isunknown(prdata)
# UVM_INFO ../uvc/env/apb_ram_driver.sv(78) @ 1750: uvm_test_top.env.a.d [DRV] mode:readd, addr:51, wdata:3644635849, rdata:0, slverr:0
# ** Error: APB SVA: Invalid address but PSLVERR not asserted
#    Time: 1770 ns Started: 1770 ns  Scope: top.vif.a_slverr_on_invalid_addr File: ../tb/apb_if.sv Line: 76 Expr: pslverr
# UVM_INFO ../uvc/env/apb_ram_scoreboard.sv(41) @ 1790: uvm_test_top.env.s [SCO] SLV ERROR during READ OP
# ----------------------------------------------------------------
# ** Warning: APB SVA: PRDATA is unknown during valid read
#    Time: 1790 ns Started: 1790 ns  Scope: top.vif.a_prdata_valid_on_read File: ../tb/apb_if.sv Line: 60 Expr: ~$isunknown(prdata)
# UVM_INFO ../uvc/env/apb_ram_driver.sv(78) @ 1810: uvm_test_top.env.a.d [DRV] mode:readd, addr:59, wdata:2295673994, rdata:0, slverr:0
# ** Error: APB SVA: Invalid address but PSLVERR not asserted
#    Time: 1830 ns Started: 1830 ns  Scope: top.vif.a_slverr_on_invalid_addr File: ../tb/apb_if.sv Line: 76 Expr: pslverr
# UVM_INFO ../uvc/env/apb_ram_scoreboard.sv(41) @ 1850: uvm_test_top.env.s [SCO] SLV ERROR during READ OP
# ----------------------------------------------------------------
# ** Warning: APB SVA: PRDATA is unknown during valid read
#    Time: 1850 ns Started: 1850 ns  Scope: top.vif.a_prdata_valid_on_read File: ../tb/apb_if.sv Line: 60 Expr: ~$isunknown(prdata)
# UVM_INFO ../uvc/env/apb_ram_driver.sv(78) @ 1870: uvm_test_top.env.a.d [DRV] mode:readd, addr:78, wdata:4236171247, rdata:0, slverr:0
# ** Error: APB SVA: Invalid address but PSLVERR not asserted
#    Time: 1890 ns Started: 1890 ns  Scope: top.vif.a_slverr_on_invalid_addr File: ../tb/apb_if.sv Line: 76 Expr: pslverr
# UVM_INFO ../uvc/env/apb_ram_scoreboard.sv(41) @ 1910: uvm_test_top.env.s [SCO] SLV ERROR during READ OP
# ----------------------------------------------------------------
# ** Warning: APB SVA: PRDATA is unknown during valid read
#    Time: 1910 ns Started: 1910 ns  Scope: top.vif.a_prdata_valid_on_read File: ../tb/apb_if.sv Line: 60 Expr: ~$isunknown(prdata)
# UVM_INFO ../uvc/env/apb_ram_driver.sv(78) @ 1930: uvm_test_top.env.a.d [DRV] mode:readd, addr:62, wdata:812920989, rdata:0, slverr:0
# ** Error: APB SVA: Invalid address but PSLVERR not asserted
#    Time: 1950 ns Started: 1950 ns  Scope: top.vif.a_slverr_on_invalid_addr File: ../tb/apb_if.sv Line: 76 Expr: pslverr
# UVM_INFO ../uvc/env/apb_ram_scoreboard.sv(41) @ 1970: uvm_test_top.env.s [SCO] SLV ERROR during READ OP
# ----------------------------------------------------------------
# ** Warning: APB SVA: PRDATA is unknown during valid read
#    Time: 1970 ns Started: 1970 ns  Scope: top.vif.a_prdata_valid_on_read File: ../tb/apb_if.sv Line: 60 Expr: ~$isunknown(prdata)
# UVM_INFO ../uvc/env/apb_ram_driver.sv(78) @ 1990: uvm_test_top.env.a.d [DRV] mode:readd, addr:82, wdata:842572445, rdata:0, slverr:0
# ** Error: APB SVA: Invalid address but PSLVERR not asserted
#    Time: 2010 ns Started: 2010 ns  Scope: top.vif.a_slverr_on_invalid_addr File: ../tb/apb_if.sv Line: 76 Expr: pslverr
# UVM_INFO ../uvc/env/apb_ram_scoreboard.sv(41) @ 2030: uvm_test_top.env.s [SCO] SLV ERROR during READ OP
# ----------------------------------------------------------------
# ** Warning: APB SVA: PRDATA is unknown during valid read
#    Time: 2030 ns Started: 2030 ns  Scope: top.vif.a_prdata_valid_on_read File: ../tb/apb_if.sv Line: 60 Expr: ~$isunknown(prdata)
# UVM_INFO ../uvc/env/apb_ram_driver.sv(78) @ 2050: uvm_test_top.env.a.d [DRV] mode:readd, addr:76, wdata:1408008632, rdata:0, slverr:0
# ** Error: APB SVA: Invalid address but PSLVERR not asserted
#    Time: 2070 ns Started: 2070 ns  Scope: top.vif.a_slverr_on_invalid_addr File: ../tb/apb_if.sv Line: 76 Expr: pslverr
# UVM_INFO ../uvc/env/apb_ram_scoreboard.sv(41) @ 2090: uvm_test_top.env.s [SCO] SLV ERROR during READ OP
# ----------------------------------------------------------------
# ** Warning: APB SVA: PRDATA is unknown during valid read
#    Time: 2090 ns Started: 2090 ns  Scope: top.vif.a_prdata_valid_on_read File: ../tb/apb_if.sv Line: 60 Expr: ~$isunknown(prdata)
# UVM_INFO ../uvc/env/apb_ram_driver.sv(78) @ 2110: uvm_test_top.env.a.d [DRV] mode:readd, addr:85, wdata:1728061235, rdata:0, slverr:0
# ** Error: APB SVA: Invalid address but PSLVERR not asserted
#    Time: 2130 ns Started: 2130 ns  Scope: top.vif.a_slverr_on_invalid_addr File: ../tb/apb_if.sv Line: 76 Expr: pslverr
# UVM_INFO ../uvc/env/apb_ram_scoreboard.sv(41) @ 2150: uvm_test_top.env.s [SCO] SLV ERROR during READ OP
# ----------------------------------------------------------------
# ** Warning: APB SVA: PRDATA is unknown during valid read
#    Time: 2150 ns Started: 2150 ns  Scope: top.vif.a_prdata_valid_on_read File: ../tb/apb_if.sv Line: 60 Expr: ~$isunknown(prdata)
# UVM_INFO ../uvc/env/apb_ram_driver.sv(78) @ 2170: uvm_test_top.env.a.d [DRV] mode:readd, addr:45, wdata:2370165681, rdata:0, slverr:0
# ** Error: APB SVA: Invalid address but PSLVERR not asserted
#    Time: 2190 ns Started: 2190 ns  Scope: top.vif.a_slverr_on_invalid_addr File: ../tb/apb_if.sv Line: 76 Expr: pslverr
# UVM_INFO ../uvc/env/apb_ram_scoreboard.sv(41) @ 2210: uvm_test_top.env.s [SCO] SLV ERROR during READ OP
# ----------------------------------------------------------------
# ** Warning: APB SVA: PRDATA is unknown during valid read
#    Time: 2210 ns Started: 2210 ns  Scope: top.vif.a_prdata_valid_on_read File: ../tb/apb_if.sv Line: 60 Expr: ~$isunknown(prdata)
# UVM_INFO ../uvc/env/apb_ram_driver.sv(78) @ 2230: uvm_test_top.env.a.d [DRV] mode:readd, addr:66, wdata:3534544320, rdata:0, slverr:0
# ** Error: APB SVA: Invalid address but PSLVERR not asserted
#    Time: 2250 ns Started: 2250 ns  Scope: top.vif.a_slverr_on_invalid_addr File: ../tb/apb_if.sv Line: 76 Expr: pslverr
# UVM_INFO ../uvc/env/apb_ram_scoreboard.sv(41) @ 2270: uvm_test_top.env.s [SCO] SLV ERROR during READ OP
# ----------------------------------------------------------------
# ** Warning: APB SVA: PRDATA is unknown during valid read
#    Time: 2270 ns Started: 2270 ns  Scope: top.vif.a_prdata_valid_on_read File: ../tb/apb_if.sv Line: 60 Expr: ~$isunknown(prdata)
# UVM_INFO ../uvc/env/apb_ram_driver.sv(78) @ 2290: uvm_test_top.env.a.d [DRV] mode:readd, addr:91, wdata:2442776198, rdata:0, slverr:0
# ** Error: APB SVA: Invalid address but PSLVERR not asserted
#    Time: 2310 ns Started: 2310 ns  Scope: top.vif.a_slverr_on_invalid_addr File: ../tb/apb_if.sv Line: 76 Expr: pslverr
# UVM_INFO ../uvc/env/apb_ram_scoreboard.sv(41) @ 2330: uvm_test_top.env.s [SCO] SLV ERROR during READ OP
# ----------------------------------------------------------------
# ** Warning: APB SVA: PRDATA is unknown during valid read
#    Time: 2330 ns Started: 2330 ns  Scope: top.vif.a_prdata_valid_on_read File: ../tb/apb_if.sv Line: 60 Expr: ~$isunknown(prdata)
# UVM_INFO ../uvc/env/apb_ram_driver.sv(78) @ 2350: uvm_test_top.env.a.d [DRV] mode:readd, addr:50, wdata:2614382870, rdata:0, slverr:0
# ** Error: APB SVA: Invalid address but PSLVERR not asserted
#    Time: 2370 ns Started: 2370 ns  Scope: top.vif.a_slverr_on_invalid_addr File: ../tb/apb_if.sv Line: 76 Expr: pslverr
# UVM_INFO ../uvc/env/apb_ram_scoreboard.sv(41) @ 2390: uvm_test_top.env.s [SCO] SLV ERROR during READ OP
# ----------------------------------------------------------------
# ** Warning: APB SVA: PRDATA is unknown during valid read
#    Time: 2390 ns Started: 2390 ns  Scope: top.vif.a_prdata_valid_on_read File: ../tb/apb_if.sv Line: 60 Expr: ~$isunknown(prdata)
# UVM_INFO ../uvc/env/apb_ram_driver.sv(78) @ 2410: uvm_test_top.env.a.d [DRV] mode:readd, addr:92, wdata:1814544769, rdata:0, slverr:0
# ** Error: APB SVA: Invalid address but PSLVERR not asserted
#    Time: 2430 ns Started: 2430 ns  Scope: top.vif.a_slverr_on_invalid_addr File: ../tb/apb_if.sv Line: 76 Expr: pslverr
# UVM_INFO ../uvc/env/apb_ram_scoreboard.sv(41) @ 2450: uvm_test_top.env.s [SCO] SLV ERROR during READ OP
# ----------------------------------------------------------------
# ** Warning: APB SVA: PRDATA is unknown during valid read
#    Time: 2450 ns Started: 2450 ns  Scope: top.vif.a_prdata_valid_on_read File: ../tb/apb_if.sv Line: 60 Expr: ~$isunknown(prdata)
# UVM_INFO ../uvc/env/apb_ram_driver.sv(78) @ 2470: uvm_test_top.env.a.d [DRV] mode:readd, addr:80, wdata:2646141795, rdata:0, slverr:0
# ** Error: APB SVA: Invalid address but PSLVERR not asserted
#    Time: 2490 ns Started: 2490 ns  Scope: top.vif.a_slverr_on_invalid_addr File: ../tb/apb_if.sv Line: 76 Expr: pslverr
# UVM_INFO ../uvc/env/apb_ram_scoreboard.sv(41) @ 2510: uvm_test_top.env.s [SCO] SLV ERROR during READ OP
# ----------------------------------------------------------------
# ** Warning: APB SVA: PRDATA is unknown during valid read
#    Time: 2510 ns Started: 2510 ns  Scope: top.vif.a_prdata_valid_on_read File: ../tb/apb_if.sv Line: 60 Expr: ~$isunknown(prdata)
# UVM_INFO ../uvc/env/apb_ram_driver.sv(78) @ 2530: uvm_test_top.env.a.d [DRV] mode:readd, addr:46, wdata:1225673380, rdata:0, slverr:0
# ** Error: APB SVA: Invalid address but PSLVERR not asserted
#    Time: 2550 ns Started: 2550 ns  Scope: top.vif.a_slverr_on_invalid_addr File: ../tb/apb_if.sv Line: 76 Expr: pslverr
# UVM_INFO ../uvc/env/apb_ram_scoreboard.sv(41) @ 2570: uvm_test_top.env.s [SCO] SLV ERROR during READ OP
# ----------------------------------------------------------------
# ** Warning: APB SVA: PRDATA is unknown during valid read
#    Time: 2570 ns Started: 2570 ns  Scope: top.vif.a_prdata_valid_on_read File: ../tb/apb_if.sv Line: 60 Expr: ~$isunknown(prdata)
# UVM_INFO ../uvc/env/apb_ram_driver.sv(78) @ 2590: uvm_test_top.env.a.d [DRV] mode:readd, addr:89, wdata:1967671799, rdata:0, slverr:0
# ** Error: APB SVA: Invalid address but PSLVERR not asserted
#    Time: 2610 ns Started: 2610 ns  Scope: top.vif.a_slverr_on_invalid_addr File: ../tb/apb_if.sv Line: 76 Expr: pslverr
# UVM_INFO ../uvc/env/apb_ram_scoreboard.sv(41) @ 2630: uvm_test_top.env.s [SCO] SLV ERROR during READ OP
# ----------------------------------------------------------------
# ** Warning: APB SVA: PRDATA is unknown during valid read
#    Time: 2630 ns Started: 2630 ns  Scope: top.vif.a_prdata_valid_on_read File: ../tb/apb_if.sv Line: 60 Expr: ~$isunknown(prdata)
# UVM_INFO ../uvc/env/apb_ram_driver.sv(78) @ 2650: uvm_test_top.env.a.d [DRV] mode:readd, addr:92, wdata:2412323114, rdata:0, slverr:0
# ** Error: APB SVA: Invalid address but PSLVERR not asserted
#    Time: 2670 ns Started: 2670 ns  Scope: top.vif.a_slverr_on_invalid_addr File: ../tb/apb_if.sv Line: 76 Expr: pslverr
# UVM_INFO ../uvc/env/apb_ram_scoreboard.sv(41) @ 2690: uvm_test_top.env.s [SCO] SLV ERROR during READ OP
# ----------------------------------------------------------------
# ** Warning: APB SVA: PRDATA is unknown during valid read
#    Time: 2690 ns Started: 2690 ns  Scope: top.vif.a_prdata_valid_on_read File: ../tb/apb_if.sv Line: 60 Expr: ~$isunknown(prdata)
# UVM_INFO ../uvc/env/apb_ram_driver.sv(78) @ 2710: uvm_test_top.env.a.d [DRV] mode:readd, addr:78, wdata:1496865130, rdata:0, slverr:0
# ** Error: APB SVA: Invalid address but PSLVERR not asserted
#    Time: 2730 ns Started: 2730 ns  Scope: top.vif.a_slverr_on_invalid_addr File: ../tb/apb_if.sv Line: 76 Expr: pslverr
# UVM_INFO ../uvc/env/apb_ram_scoreboard.sv(41) @ 2750: uvm_test_top.env.s [SCO] SLV ERROR during READ OP
# ----------------------------------------------------------------
# ** Warning: APB SVA: PRDATA is unknown during valid read
#    Time: 2750 ns Started: 2750 ns  Scope: top.vif.a_prdata_valid_on_read File: ../tb/apb_if.sv Line: 60 Expr: ~$isunknown(prdata)
# UVM_INFO ../uvc/env/apb_ram_driver.sv(78) @ 2770: uvm_test_top.env.a.d [DRV] mode:readd, addr:38, wdata:3007791890, rdata:0, slverr:0
# ** Error: APB SVA: Invalid address but PSLVERR not asserted
#    Time: 2790 ns Started: 2790 ns  Scope: top.vif.a_slverr_on_invalid_addr File: ../tb/apb_if.sv Line: 76 Expr: pslverr
# UVM_INFO ../uvc/env/apb_ram_scoreboard.sv(41) @ 2810: uvm_test_top.env.s [SCO] SLV ERROR during READ OP
# ----------------------------------------------------------------
# ** Warning: APB SVA: PRDATA is unknown during valid read
#    Time: 2810 ns Started: 2810 ns  Scope: top.vif.a_prdata_valid_on_read File: ../tb/apb_if.sv Line: 60 Expr: ~$isunknown(prdata)
# UVM_INFO ../uvc/env/apb_ram_driver.sv(78) @ 2830: uvm_test_top.env.a.d [DRV] mode:readd, addr:47, wdata:1654212079, rdata:0, slverr:0
# ** Error: APB SVA: Invalid address but PSLVERR not asserted
#    Time: 2850 ns Started: 2850 ns  Scope: top.vif.a_slverr_on_invalid_addr File: ../tb/apb_if.sv Line: 76 Expr: pslverr
# UVM_INFO ../uvc/env/apb_ram_scoreboard.sv(41) @ 2870: uvm_test_top.env.s [SCO] SLV ERROR during READ OP
# ----------------------------------------------------------------
# ** Warning: APB SVA: PRDATA is unknown during valid read
#    Time: 2870 ns Started: 2870 ns  Scope: top.vif.a_prdata_valid_on_read File: ../tb/apb_if.sv Line: 60 Expr: ~$isunknown(prdata)
# UVM_INFO ../uvc/env/apb_ram_driver.sv(78) @ 2890: uvm_test_top.env.a.d [DRV] mode:readd, addr:68, wdata:3373696266, rdata:0, slverr:0
# ** Error: APB SVA: Invalid address but PSLVERR not asserted
#    Time: 2910 ns Started: 2910 ns  Scope: top.vif.a_slverr_on_invalid_addr File: ../tb/apb_if.sv Line: 76 Expr: pslverr
# UVM_INFO ../uvc/env/apb_ram_scoreboard.sv(41) @ 2930: uvm_test_top.env.s [SCO] SLV ERROR during READ OP
# ----------------------------------------------------------------
# ** Warning: APB SVA: PRDATA is unknown during valid read
#    Time: 2930 ns Started: 2930 ns  Scope: top.vif.a_prdata_valid_on_read File: ../tb/apb_if.sv Line: 60 Expr: ~$isunknown(prdata)
# UVM_INFO ../uvc/env/apb_ram_driver.sv(78) @ 2950: uvm_test_top.env.a.d [DRV] mode:readd, addr:79, wdata:302863272, rdata:0, slverr:0
# ** Error: APB SVA: Invalid address but PSLVERR not asserted
#    Time: 2970 ns Started: 2970 ns  Scope: top.vif.a_slverr_on_invalid_addr File: ../tb/apb_if.sv Line: 76 Expr: pslverr
# UVM_INFO ../uvc/env/apb_ram_scoreboard.sv(41) @ 2990: uvm_test_top.env.s [SCO] SLV ERROR during READ OP
# ----------------------------------------------------------------
# ** Warning: APB SVA: PRDATA is unknown during valid read
#    Time: 2990 ns Started: 2990 ns  Scope: top.vif.a_prdata_valid_on_read File: ../tb/apb_if.sv Line: 60 Expr: ~$isunknown(prdata)
# UVM_INFO ../uvc/env/apb_ram_driver.sv(78) @ 3010: uvm_test_top.env.a.d [DRV] mode:readd, addr:41, wdata:2912410914, rdata:0, slverr:0
# ** Error: APB SVA: Invalid address but PSLVERR not asserted
#    Time: 3030 ns Started: 3030 ns  Scope: top.vif.a_slverr_on_invalid_addr File: ../tb/apb_if.sv Line: 76 Expr: pslverr
# UVM_INFO ../uvc/env/apb_ram_scoreboard.sv(41) @ 3050: uvm_test_top.env.s [SCO] SLV ERROR during READ OP
# ----------------------------------------------------------------
# ** Warning: APB SVA: PRDATA is unknown during valid read
#    Time: 3050 ns Started: 3050 ns  Scope: top.vif.a_prdata_valid_on_read File: ../tb/apb_if.sv Line: 60 Expr: ~$isunknown(prdata)
# UVM_INFO ../uvc/env/apb_ram_driver.sv(78) @ 3070: uvm_test_top.env.a.d [DRV] mode:readd, addr:46, wdata:1966490993, rdata:0, slverr:0
# ** Error: APB SVA: Invalid address but PSLVERR not asserted
#    Time: 3090 ns Started: 3090 ns  Scope: top.vif.a_slverr_on_invalid_addr File: ../tb/apb_if.sv Line: 76 Expr: pslverr
# UVM_INFO ../uvc/env/apb_ram_scoreboard.sv(41) @ 3110: uvm_test_top.env.s [SCO] SLV ERROR during READ OP
# ----------------------------------------------------------------
# ** Warning: APB SVA: PRDATA is unknown during valid read
#    Time: 3110 ns Started: 3110 ns  Scope: top.vif.a_prdata_valid_on_read File: ../tb/apb_if.sv Line: 60 Expr: ~$isunknown(prdata)
# UVM_INFO ../uvc/env/apb_ram_driver.sv(78) @ 3130: uvm_test_top.env.a.d [DRV] mode:readd, addr:61, wdata:709999995, rdata:0, slverr:0
# ** Error: APB SVA: Invalid address but PSLVERR not asserted
#    Time: 3150 ns Started: 3150 ns  Scope: top.vif.a_slverr_on_invalid_addr File: ../tb/apb_if.sv Line: 76 Expr: pslverr
# UVM_INFO ../uvc/env/apb_ram_scoreboard.sv(41) @ 3170: uvm_test_top.env.s [SCO] SLV ERROR during READ OP
# ----------------------------------------------------------------
# ** Warning: APB SVA: PRDATA is unknown during valid read
#    Time: 3170 ns Started: 3170 ns  Scope: top.vif.a_prdata_valid_on_read File: ../tb/apb_if.sv Line: 60 Expr: ~$isunknown(prdata)
# UVM_INFO ../uvc/env/apb_ram_driver.sv(78) @ 3190: uvm_test_top.env.a.d [DRV] mode:readd, addr:53, wdata:1381038493, rdata:0, slverr:0
# ** Error: APB SVA: Invalid address but PSLVERR not asserted
#    Time: 3210 ns Started: 3210 ns  Scope: top.vif.a_slverr_on_invalid_addr File: ../tb/apb_if.sv Line: 76 Expr: pslverr
# UVM_INFO ../uvc/env/apb_ram_scoreboard.sv(41) @ 3230: uvm_test_top.env.s [SCO] SLV ERROR during READ OP
# ----------------------------------------------------------------
# ** Warning: APB SVA: PRDATA is unknown during valid read
#    Time: 3230 ns Started: 3230 ns  Scope: top.vif.a_prdata_valid_on_read File: ../tb/apb_if.sv Line: 60 Expr: ~$isunknown(prdata)
# UVM_INFO ../uvc/env/apb_ram_driver.sv(78) @ 3250: uvm_test_top.env.a.d [DRV] mode:readd, addr:86, wdata:4144100939, rdata:0, slverr:0
# ** Error: APB SVA: Invalid address but PSLVERR not asserted
#    Time: 3270 ns Started: 3270 ns  Scope: top.vif.a_slverr_on_invalid_addr File: ../tb/apb_if.sv Line: 76 Expr: pslverr
# UVM_INFO ../uvc/env/apb_ram_scoreboard.sv(41) @ 3290: uvm_test_top.env.s [SCO] SLV ERROR during READ OP
# ----------------------------------------------------------------
# ** Warning: APB SVA: PRDATA is unknown during valid read
#    Time: 3290 ns Started: 3290 ns  Scope: top.vif.a_prdata_valid_on_read File: ../tb/apb_if.sv Line: 60 Expr: ~$isunknown(prdata)
# UVM_INFO ../uvc/env/apb_ram_driver.sv(78) @ 3310: uvm_test_top.env.a.d [DRV] mode:readd, addr:79, wdata:892512377, rdata:0, slverr:0
# ** Error: APB SVA: Invalid address but PSLVERR not asserted
#    Time: 3330 ns Started: 3330 ns  Scope: top.vif.a_slverr_on_invalid_addr File: ../tb/apb_if.sv Line: 76 Expr: pslverr
# UVM_INFO ../uvc/env/apb_ram_scoreboard.sv(41) @ 3350: uvm_test_top.env.s [SCO] SLV ERROR during READ OP
# ----------------------------------------------------------------
# ** Warning: APB SVA: PRDATA is unknown during valid read
#    Time: 3350 ns Started: 3350 ns  Scope: top.vif.a_prdata_valid_on_read File: ../tb/apb_if.sv Line: 60 Expr: ~$isunknown(prdata)
# UVM_INFO ../uvc/env/apb_ram_driver.sv(78) @ 3370: uvm_test_top.env.a.d [DRV] mode:readd, addr:74, wdata:3578429675, rdata:0, slverr:0
# ** Error: APB SVA: Invalid address but PSLVERR not asserted
#    Time: 3390 ns Started: 3390 ns  Scope: top.vif.a_slverr_on_invalid_addr File: ../tb/apb_if.sv Line: 76 Expr: pslverr
# UVM_INFO ../uvc/env/apb_ram_scoreboard.sv(41) @ 3410: uvm_test_top.env.s [SCO] SLV ERROR during READ OP
# ----------------------------------------------------------------
# ** Warning: APB SVA: PRDATA is unknown during valid read
#    Time: 3410 ns Started: 3410 ns  Scope: top.vif.a_prdata_valid_on_read File: ../tb/apb_if.sv Line: 60 Expr: ~$isunknown(prdata)
# UVM_INFO ../uvc/env/apb_ram_driver.sv(78) @ 3430: uvm_test_top.env.a.d [DRV] mode:readd, addr:97, wdata:2582529987, rdata:0, slverr:0
# ** Error: APB SVA: Invalid address but PSLVERR not asserted
#    Time: 3450 ns Started: 3450 ns  Scope: top.vif.a_slverr_on_invalid_addr File: ../tb/apb_if.sv Line: 76 Expr: pslverr
# UVM_INFO ../uvc/env/apb_ram_scoreboard.sv(41) @ 3470: uvm_test_top.env.s [SCO] SLV ERROR during READ OP
# ----------------------------------------------------------------
# ** Warning: APB SVA: PRDATA is unknown during valid read
#    Time: 3470 ns Started: 3470 ns  Scope: top.vif.a_prdata_valid_on_read File: ../tb/apb_if.sv Line: 60 Expr: ~$isunknown(prdata)
# UVM_INFO ../uvc/env/apb_ram_driver.sv(78) @ 3490: uvm_test_top.env.a.d [DRV] mode:readd, addr:63, wdata:3985947039, rdata:0, slverr:0
# ** Error: APB SVA: Invalid address but PSLVERR not asserted
#    Time: 3510 ns Started: 3510 ns  Scope: top.vif.a_slverr_on_invalid_addr File: ../tb/apb_if.sv Line: 76 Expr: pslverr
# UVM_INFO ../uvc/env/apb_ram_scoreboard.sv(41) @ 3530: uvm_test_top.env.s [SCO] SLV ERROR during READ OP
# ----------------------------------------------------------------
# ** Warning: APB SVA: PRDATA is unknown during valid read
#    Time: 3530 ns Started: 3530 ns  Scope: top.vif.a_prdata_valid_on_read File: ../tb/apb_if.sv Line: 60 Expr: ~$isunknown(prdata)
# UVM_INFO ../uvc/env/apb_ram_driver.sv(78) @ 3550: uvm_test_top.env.a.d [DRV] mode:readd, addr:93, wdata:2766433457, rdata:0, slverr:0
# ** Error: APB SVA: Invalid address but PSLVERR not asserted
#    Time: 3570 ns Started: 3570 ns  Scope: top.vif.a_slverr_on_invalid_addr File: ../tb/apb_if.sv Line: 76 Expr: pslverr
# UVM_INFO ../uvc/env/apb_ram_scoreboard.sv(41) @ 3590: uvm_test_top.env.s [SCO] SLV ERROR during READ OP
# ----------------------------------------------------------------
# ** Warning: APB SVA: PRDATA is unknown during valid read
#    Time: 3590 ns Started: 3590 ns  Scope: top.vif.a_prdata_valid_on_read File: ../tb/apb_if.sv Line: 60 Expr: ~$isunknown(prdata)
# UVM_INFO ../uvc/env/apb_ram_driver.sv(78) @ 3610: uvm_test_top.env.a.d [DRV] mode:readd, addr:73, wdata:4007790511, rdata:0, slverr:0
# ** Error: APB SVA: Invalid address but PSLVERR not asserted
#    Time: 3630 ns Started: 3630 ns  Scope: top.vif.a_slverr_on_invalid_addr File: ../tb/apb_if.sv Line: 76 Expr: pslverr
# UVM_INFO ../uvc/env/apb_ram_scoreboard.sv(41) @ 3650: uvm_test_top.env.s [SCO] SLV ERROR during READ OP
# ----------------------------------------------------------------
# ** Warning: APB SVA: PRDATA is unknown during valid read
#    Time: 3650 ns Started: 3650 ns  Scope: top.vif.a_prdata_valid_on_read File: ../tb/apb_if.sv Line: 60 Expr: ~$isunknown(prdata)
# UVM_INFO ../uvc/env/apb_ram_driver.sv(78) @ 3670: uvm_test_top.env.a.d [DRV] mode:readd, addr:53, wdata:736522590, rdata:0, slverr:0
# ** Error: APB SVA: Invalid address but PSLVERR not asserted
#    Time: 3690 ns Started: 3690 ns  Scope: top.vif.a_slverr_on_invalid_addr File: ../tb/apb_if.sv Line: 76 Expr: pslverr
# UVM_INFO ../uvc/env/apb_ram_scoreboard.sv(41) @ 3710: uvm_test_top.env.s [SCO] SLV ERROR during READ OP
# ----------------------------------------------------------------
# ** Warning: APB SVA: PRDATA is unknown during valid read
#    Time: 3710 ns Started: 3710 ns  Scope: top.vif.a_prdata_valid_on_read File: ../tb/apb_if.sv Line: 60 Expr: ~$isunknown(prdata)
# UVM_INFO ../uvc/env/apb_ram_driver.sv(78) @ 3730: uvm_test_top.env.a.d [DRV] mode:readd, addr:77, wdata:4022774536, rdata:0, slverr:0
# ** Error: APB SVA: Invalid address but PSLVERR not asserted
#    Time: 3750 ns Started: 3750 ns  Scope: top.vif.a_slverr_on_invalid_addr File: ../tb/apb_if.sv Line: 76 Expr: pslverr
# UVM_INFO ../uvc/env/apb_ram_scoreboard.sv(41) @ 3770: uvm_test_top.env.s [SCO] SLV ERROR during READ OP
# ----------------------------------------------------------------
# ** Warning: APB SVA: PRDATA is unknown during valid read
#    Time: 3770 ns Started: 3770 ns  Scope: top.vif.a_prdata_valid_on_read File: ../tb/apb_if.sv Line: 60 Expr: ~$isunknown(prdata)
# UVM_INFO ../uvc/env/apb_ram_driver.sv(78) @ 3790: uvm_test_top.env.a.d [DRV] mode:readd, addr:38, wdata:3012510934, rdata:0, slverr:0
# ** Error: APB SVA: Invalid address but PSLVERR not asserted
#    Time: 3810 ns Started: 3810 ns  Scope: top.vif.a_slverr_on_invalid_addr File: ../tb/apb_if.sv Line: 76 Expr: pslverr
# UVM_INFO ../uvc/env/apb_ram_scoreboard.sv(41) @ 3830: uvm_test_top.env.s [SCO] SLV ERROR during READ OP
# ----------------------------------------------------------------
# ** Warning: APB SVA: PRDATA is unknown during valid read
#    Time: 3830 ns Started: 3830 ns  Scope: top.vif.a_prdata_valid_on_read File: ../tb/apb_if.sv Line: 60 Expr: ~$isunknown(prdata)
# UVM_INFO ../uvc/env/apb_ram_driver.sv(78) @ 3850: uvm_test_top.env.a.d [DRV] mode:readd, addr:77, wdata:3611130099, rdata:0, slverr:0
# ** Error: APB SVA: Invalid address but PSLVERR not asserted
#    Time: 3870 ns Started: 3870 ns  Scope: top.vif.a_slverr_on_invalid_addr File: ../tb/apb_if.sv Line: 76 Expr: pslverr
# UVM_INFO ../uvc/env/apb_ram_scoreboard.sv(41) @ 3890: uvm_test_top.env.s [SCO] SLV ERROR during READ OP
# ----------------------------------------------------------------
# ** Warning: APB SVA: PRDATA is unknown during valid read
#    Time: 3890 ns Started: 3890 ns  Scope: top.vif.a_prdata_valid_on_read File: ../tb/apb_if.sv Line: 60 Expr: ~$isunknown(prdata)
# UVM_INFO ../uvc/env/apb_ram_driver.sv(78) @ 3910: uvm_test_top.env.a.d [DRV] mode:readd, addr:36, wdata:573725882, rdata:0, slverr:0
# ** Error: APB SVA: Invalid address but PSLVERR not asserted
#    Time: 3930 ns Started: 3930 ns  Scope: top.vif.a_slverr_on_invalid_addr File: ../tb/apb_if.sv Line: 76 Expr: pslverr
# UVM_INFO ../uvc/env/apb_ram_scoreboard.sv(41) @ 3950: uvm_test_top.env.s [SCO] SLV ERROR during READ OP
# ----------------------------------------------------------------
# ** Warning: APB SVA: PRDATA is unknown during valid read
#    Time: 3950 ns Started: 3950 ns  Scope: top.vif.a_prdata_valid_on_read File: ../tb/apb_if.sv Line: 60 Expr: ~$isunknown(prdata)
# UVM_INFO ../uvc/env/apb_ram_driver.sv(78) @ 3970: uvm_test_top.env.a.d [DRV] mode:readd, addr:73, wdata:2726042824, rdata:0, slverr:0
# ** Error: APB SVA: Invalid address but PSLVERR not asserted
#    Time: 3990 ns Started: 3990 ns  Scope: top.vif.a_slverr_on_invalid_addr File: ../tb/apb_if.sv Line: 76 Expr: pslverr
# UVM_INFO ../uvc/env/apb_ram_scoreboard.sv(41) @ 4010: uvm_test_top.env.s [SCO] SLV ERROR during READ OP
# ----------------------------------------------------------------
# ** Warning: APB SVA: PRDATA is unknown during valid read
#    Time: 4010 ns Started: 4010 ns  Scope: top.vif.a_prdata_valid_on_read File: ../tb/apb_if.sv Line: 60 Expr: ~$isunknown(prdata)
# UVM_INFO ../uvc/env/apb_ram_driver.sv(78) @ 4030: uvm_test_top.env.a.d [DRV] mode:readd, addr:92, wdata:1096171635, rdata:0, slverr:0
# ** Error: APB SVA: Invalid address but PSLVERR not asserted
#    Time: 4050 ns Started: 4050 ns  Scope: top.vif.a_slverr_on_invalid_addr File: ../tb/apb_if.sv Line: 76 Expr: pslverr
# UVM_INFO ../uvc/env/apb_ram_scoreboard.sv(41) @ 4070: uvm_test_top.env.s [SCO] SLV ERROR during READ OP
# ----------------------------------------------------------------
# ** Warning: APB SVA: PRDATA is unknown during valid read
#    Time: 4070 ns Started: 4070 ns  Scope: top.vif.a_prdata_valid_on_read File: ../tb/apb_if.sv Line: 60 Expr: ~$isunknown(prdata)
# UVM_INFO ../uvc/env/apb_ram_driver.sv(78) @ 4090: uvm_test_top.env.a.d [DRV] mode:readd, addr:94, wdata:4116889447, rdata:0, slverr:0
# ** Error: APB SVA: Invalid address but PSLVERR not asserted
#    Time: 4110 ns Started: 4110 ns  Scope: top.vif.a_slverr_on_invalid_addr File: ../tb/apb_if.sv Line: 76 Expr: pslverr
# UVM_INFO ../uvc/env/apb_ram_scoreboard.sv(41) @ 4130: uvm_test_top.env.s [SCO] SLV ERROR during READ OP
# ----------------------------------------------------------------
# ** Warning: APB SVA: PRDATA is unknown during valid read
#    Time: 4130 ns Started: 4130 ns  Scope: top.vif.a_prdata_valid_on_read File: ../tb/apb_if.sv Line: 60 Expr: ~$isunknown(prdata)
# UVM_INFO ../uvc/env/apb_ram_driver.sv(78) @ 4150: uvm_test_top.env.a.d [DRV] mode:readd, addr:94, wdata:1609299050, rdata:0, slverr:0
# ** Error: APB SVA: Invalid address but PSLVERR not asserted
#    Time: 4170 ns Started: 4170 ns  Scope: top.vif.a_slverr_on_invalid_addr File: ../tb/apb_if.sv Line: 76 Expr: pslverr
# UVM_INFO ../uvc/env/apb_ram_scoreboard.sv(41) @ 4190: uvm_test_top.env.s [SCO] SLV ERROR during READ OP
# ----------------------------------------------------------------
# ** Warning: APB SVA: PRDATA is unknown during valid read
#    Time: 4190 ns Started: 4190 ns  Scope: top.vif.a_prdata_valid_on_read File: ../tb/apb_if.sv Line: 60 Expr: ~$isunknown(prdata)
# UVM_INFO ../uvc/env/apb_ram_driver.sv(78) @ 4210: uvm_test_top.env.a.d [DRV] mode:readd, addr:82, wdata:1721030693, rdata:0, slverr:0
# ** Error: APB SVA: Invalid address but PSLVERR not asserted
#    Time: 4230 ns Started: 4230 ns  Scope: top.vif.a_slverr_on_invalid_addr File: ../tb/apb_if.sv Line: 76 Expr: pslverr
# UVM_INFO ../uvc/env/apb_ram_scoreboard.sv(41) @ 4250: uvm_test_top.env.s [SCO] SLV ERROR during READ OP
# ----------------------------------------------------------------
# ** Warning: APB SVA: PRDATA is unknown during valid read
#    Time: 4250 ns Started: 4250 ns  Scope: top.vif.a_prdata_valid_on_read File: ../tb/apb_if.sv Line: 60 Expr: ~$isunknown(prdata)
# UVM_INFO ../uvc/env/apb_ram_driver.sv(78) @ 4270: uvm_test_top.env.a.d [DRV] mode:readd, addr:92, wdata:1907405854, rdata:0, slverr:0
# ** Error: APB SVA: Invalid address but PSLVERR not asserted
#    Time: 4290 ns Started: 4290 ns  Scope: top.vif.a_slverr_on_invalid_addr File: ../tb/apb_if.sv Line: 76 Expr: pslverr
# UVM_INFO ../uvc/env/apb_ram_scoreboard.sv(41) @ 4310: uvm_test_top.env.s [SCO] SLV ERROR during READ OP
# ----------------------------------------------------------------
# ** Warning: APB SVA: PRDATA is unknown during valid read
#    Time: 4310 ns Started: 4310 ns  Scope: top.vif.a_prdata_valid_on_read File: ../tb/apb_if.sv Line: 60 Expr: ~$isunknown(prdata)
# UVM_INFO ../uvc/env/apb_ram_driver.sv(78) @ 4330: uvm_test_top.env.a.d [DRV] mode:readd, addr:46, wdata:3615637079, rdata:0, slverr:0
# ** Error: APB SVA: Invalid address but PSLVERR not asserted
#    Time: 4350 ns Started: 4350 ns  Scope: top.vif.a_slverr_on_invalid_addr File: ../tb/apb_if.sv Line: 76 Expr: pslverr
# UVM_INFO ../uvc/env/apb_ram_scoreboard.sv(41) @ 4370: uvm_test_top.env.s [SCO] SLV ERROR during READ OP
# ----------------------------------------------------------------
# ** Warning: APB SVA: PRDATA is unknown during valid read
#    Time: 4370 ns Started: 4370 ns  Scope: top.vif.a_prdata_valid_on_read File: ../tb/apb_if.sv Line: 60 Expr: ~$isunknown(prdata)
# UVM_INFO ../uvc/env/apb_ram_driver.sv(78) @ 4390: uvm_test_top.env.a.d [DRV] mode:readd, addr:36, wdata:2567223576, rdata:0, slverr:0
# ** Error: APB SVA: Invalid address but PSLVERR not asserted
#    Time: 4410 ns Started: 4410 ns  Scope: top.vif.a_slverr_on_invalid_addr File: ../tb/apb_if.sv Line: 76 Expr: pslverr
# UVM_INFO ../uvc/env/apb_ram_scoreboard.sv(41) @ 4430: uvm_test_top.env.s [SCO] SLV ERROR during READ OP
# ----------------------------------------------------------------
# ** Warning: APB SVA: PRDATA is unknown during valid read
#    Time: 4430 ns Started: 4430 ns  Scope: top.vif.a_prdata_valid_on_read File: ../tb/apb_if.sv Line: 60 Expr: ~$isunknown(prdata)
# UVM_INFO ../uvc/env/apb_ram_driver.sv(78) @ 4450: uvm_test_top.env.a.d [DRV] mode:readd, addr:39, wdata:344372223, rdata:0, slverr:0
# ** Error: APB SVA: Invalid address but PSLVERR not asserted
#    Time: 4470 ns Started: 4470 ns  Scope: top.vif.a_slverr_on_invalid_addr File: ../tb/apb_if.sv Line: 76 Expr: pslverr
# UVM_INFO ../uvc/env/apb_ram_scoreboard.sv(41) @ 4490: uvm_test_top.env.s [SCO] SLV ERROR during READ OP
# ----------------------------------------------------------------
# ** Warning: APB SVA: PRDATA is unknown during valid read
#    Time: 4490 ns Started: 4490 ns  Scope: top.vif.a_prdata_valid_on_read File: ../tb/apb_if.sv Line: 60 Expr: ~$isunknown(prdata)
# UVM_INFO ../uvc/env/apb_ram_driver.sv(78) @ 4510: uvm_test_top.env.a.d [DRV] mode:readd, addr:47, wdata:847442581, rdata:0, slverr:0
# ** Error: APB SVA: Invalid address but PSLVERR not asserted
#    Time: 4530 ns Started: 4530 ns  Scope: top.vif.a_slverr_on_invalid_addr File: ../tb/apb_if.sv Line: 76 Expr: pslverr
# UVM_INFO ../uvc/env/apb_ram_scoreboard.sv(41) @ 4550: uvm_test_top.env.s [SCO] SLV ERROR during READ OP
# ----------------------------------------------------------------
# ** Warning: APB SVA: PRDATA is unknown during valid read
#    Time: 4550 ns Started: 4550 ns  Scope: top.vif.a_prdata_valid_on_read File: ../tb/apb_if.sv Line: 60 Expr: ~$isunknown(prdata)
# UVM_INFO ../uvc/env/apb_ram_driver.sv(78) @ 4570: uvm_test_top.env.a.d [DRV] mode:readd, addr:39, wdata:2856583018, rdata:0, slverr:0
# ** Error: APB SVA: Invalid address but PSLVERR not asserted
#    Time: 4590 ns Started: 4590 ns  Scope: top.vif.a_slverr_on_invalid_addr File: ../tb/apb_if.sv Line: 76 Expr: pslverr
# UVM_INFO ../uvc/env/apb_ram_scoreboard.sv(41) @ 4610: uvm_test_top.env.s [SCO] SLV ERROR during READ OP
# ----------------------------------------------------------------
# ** Warning: APB SVA: PRDATA is unknown during valid read
#    Time: 4610 ns Started: 4610 ns  Scope: top.vif.a_prdata_valid_on_read File: ../tb/apb_if.sv Line: 60 Expr: ~$isunknown(prdata)
# UVM_INFO ../uvc/env/apb_ram_driver.sv(78) @ 4630: uvm_test_top.env.a.d [DRV] mode:readd, addr:32, wdata:1640786469, rdata:0, slverr:0
# ** Error: APB SVA: Invalid address but PSLVERR not asserted
#    Time: 4650 ns Started: 4650 ns  Scope: top.vif.a_slverr_on_invalid_addr File: ../tb/apb_if.sv Line: 76 Expr: pslverr
# UVM_INFO ../uvc/env/apb_ram_scoreboard.sv(41) @ 4670: uvm_test_top.env.s [SCO] SLV ERROR during READ OP
# ----------------------------------------------------------------
# ** Warning: APB SVA: PRDATA is unknown during valid read
#    Time: 4670 ns Started: 4670 ns  Scope: top.vif.a_prdata_valid_on_read File: ../tb/apb_if.sv Line: 60 Expr: ~$isunknown(prdata)
# UVM_INFO ../uvc/env/apb_ram_driver.sv(78) @ 4690: uvm_test_top.env.a.d [DRV] mode:readd, addr:72, wdata:2759802914, rdata:0, slverr:0
# ** Error: APB SVA: Invalid address but PSLVERR not asserted
#    Time: 4710 ns Started: 4710 ns  Scope: top.vif.a_slverr_on_invalid_addr File: ../tb/apb_if.sv Line: 76 Expr: pslverr
# UVM_INFO ../uvc/env/apb_ram_scoreboard.sv(41) @ 4730: uvm_test_top.env.s [SCO] SLV ERROR during READ OP
# ----------------------------------------------------------------
# ** Warning: APB SVA: PRDATA is unknown during valid read
#    Time: 4730 ns Started: 4730 ns  Scope: top.vif.a_prdata_valid_on_read File: ../tb/apb_if.sv Line: 60 Expr: ~$isunknown(prdata)
# UVM_INFO ../uvc/env/apb_ram_driver.sv(78) @ 4750: uvm_test_top.env.a.d [DRV] mode:readd, addr:42, wdata:173840900, rdata:0, slverr:0
# ** Error: APB SVA: Invalid address but PSLVERR not asserted
#    Time: 4770 ns Started: 4770 ns  Scope: top.vif.a_slverr_on_invalid_addr File: ../tb/apb_if.sv Line: 76 Expr: pslverr
# UVM_INFO ../uvc/env/apb_ram_scoreboard.sv(41) @ 4790: uvm_test_top.env.s [SCO] SLV ERROR during READ OP
# ----------------------------------------------------------------
# ** Warning: APB SVA: PRDATA is unknown during valid read
#    Time: 4790 ns Started: 4790 ns  Scope: top.vif.a_prdata_valid_on_read File: ../tb/apb_if.sv Line: 60 Expr: ~$isunknown(prdata)
# UVM_INFO ../uvc/env/apb_ram_driver.sv(78) @ 4810: uvm_test_top.env.a.d [DRV] mode:readd, addr:40, wdata:3302395917, rdata:0, slverr:0
# ** Error: APB SVA: Invalid address but PSLVERR not asserted
#    Time: 4830 ns Started: 4830 ns  Scope: top.vif.a_slverr_on_invalid_addr File: ../tb/apb_if.sv Line: 76 Expr: pslverr
# UVM_INFO ../uvc/env/apb_ram_scoreboard.sv(41) @ 4850: uvm_test_top.env.s [SCO] SLV ERROR during READ OP
# ----------------------------------------------------------------
# ** Warning: APB SVA: PRDATA is unknown during valid read
#    Time: 4850 ns Started: 4850 ns  Scope: top.vif.a_prdata_valid_on_read File: ../tb/apb_if.sv Line: 60 Expr: ~$isunknown(prdata)
# UVM_INFO ../uvc/env/apb_ram_driver.sv(78) @ 4870: uvm_test_top.env.a.d [DRV] mode:readd, addr:96, wdata:3074316253, rdata:0, slverr:0
# ** Error: APB SVA: Invalid address but PSLVERR not asserted
#    Time: 4890 ns Started: 4890 ns  Scope: top.vif.a_slverr_on_invalid_addr File: ../tb/apb_if.sv Line: 76 Expr: pslverr
# UVM_INFO ../uvc/env/apb_ram_scoreboard.sv(41) @ 4910: uvm_test_top.env.s [SCO] SLV ERROR during READ OP
# ----------------------------------------------------------------
# ** Warning: APB SVA: PRDATA is unknown during valid read
#    Time: 4910 ns Started: 4910 ns  Scope: top.vif.a_prdata_valid_on_read File: ../tb/apb_if.sv Line: 60 Expr: ~$isunknown(prdata)
# UVM_INFO ../uvc/env/apb_ram_driver.sv(78) @ 4930: uvm_test_top.env.a.d [DRV] mode:readd, addr:42, wdata:3755934142, rdata:0, slverr:0
# ** Error: APB SVA: Invalid address but PSLVERR not asserted
#    Time: 4950 ns Started: 4950 ns  Scope: top.vif.a_slverr_on_invalid_addr File: ../tb/apb_if.sv Line: 76 Expr: pslverr
# UVM_INFO ../uvc/env/apb_ram_scoreboard.sv(41) @ 4970: uvm_test_top.env.s [SCO] SLV ERROR during READ OP
# ----------------------------------------------------------------
# ** Warning: APB SVA: PRDATA is unknown during valid read
#    Time: 4970 ns Started: 4970 ns  Scope: top.vif.a_prdata_valid_on_read File: ../tb/apb_if.sv Line: 60 Expr: ~$isunknown(prdata)
# UVM_INFO ../uvc/env/apb_ram_driver.sv(78) @ 4990: uvm_test_top.env.a.d [DRV] mode:readd, addr:73, wdata:2009335954, rdata:0, slverr:0
# ** Error: APB SVA: Invalid address but PSLVERR not asserted
#    Time: 5010 ns Started: 5010 ns  Scope: top.vif.a_slverr_on_invalid_addr File: ../tb/apb_if.sv Line: 76 Expr: pslverr
# UVM_INFO ../uvc/env/apb_ram_scoreboard.sv(41) @ 5030: uvm_test_top.env.s [SCO] SLV ERROR during READ OP
# ----------------------------------------------------------------
# ** Warning: APB SVA: PRDATA is unknown during valid read
#    Time: 5030 ns Started: 5030 ns  Scope: top.vif.a_prdata_valid_on_read File: ../tb/apb_if.sv Line: 60 Expr: ~$isunknown(prdata)
# UVM_INFO ../uvc/env/apb_ram_driver.sv(78) @ 5050: uvm_test_top.env.a.d [DRV] mode:readd, addr:87, wdata:3906754574, rdata:0, slverr:0
# ** Error: APB SVA: Invalid address but PSLVERR not asserted
#    Time: 5070 ns Started: 5070 ns  Scope: top.vif.a_slverr_on_invalid_addr File: ../tb/apb_if.sv Line: 76 Expr: pslverr
# UVM_INFO ../uvc/env/apb_ram_scoreboard.sv(41) @ 5090: uvm_test_top.env.s [SCO] SLV ERROR during READ OP
# ----------------------------------------------------------------
# ** Warning: APB SVA: PRDATA is unknown during valid read
#    Time: 5090 ns Started: 5090 ns  Scope: top.vif.a_prdata_valid_on_read File: ../tb/apb_if.sv Line: 60 Expr: ~$isunknown(prdata)
# UVM_INFO ../uvc/env/apb_ram_driver.sv(78) @ 5110: uvm_test_top.env.a.d [DRV] mode:readd, addr:58, wdata:1093583199, rdata:0, slverr:0
# ** Error: APB SVA: Invalid address but PSLVERR not asserted
#    Time: 5130 ns Started: 5130 ns  Scope: top.vif.a_slverr_on_invalid_addr File: ../tb/apb_if.sv Line: 76 Expr: pslverr
# UVM_INFO ../uvc/env/apb_ram_scoreboard.sv(41) @ 5150: uvm_test_top.env.s [SCO] SLV ERROR during READ OP
# ----------------------------------------------------------------
# ** Warning: APB SVA: PRDATA is unknown during valid read
#    Time: 5150 ns Started: 5150 ns  Scope: top.vif.a_prdata_valid_on_read File: ../tb/apb_if.sv Line: 60 Expr: ~$isunknown(prdata)
# UVM_INFO ../uvc/env/apb_ram_driver.sv(78) @ 5170: uvm_test_top.env.a.d [DRV] mode:readd, addr:40, wdata:2695237669, rdata:0, slverr:0
# ** Error: APB SVA: Invalid address but PSLVERR not asserted
#    Time: 5190 ns Started: 5190 ns  Scope: top.vif.a_slverr_on_invalid_addr File: ../tb/apb_if.sv Line: 76 Expr: pslverr
# UVM_INFO ../uvc/env/apb_ram_scoreboard.sv(41) @ 5210: uvm_test_top.env.s [SCO] SLV ERROR during READ OP
# ----------------------------------------------------------------
# ** Warning: APB SVA: PRDATA is unknown during valid read
#    Time: 5210 ns Started: 5210 ns  Scope: top.vif.a_prdata_valid_on_read File: ../tb/apb_if.sv Line: 60 Expr: ~$isunknown(prdata)
# UVM_INFO ../uvc/env/apb_ram_driver.sv(78) @ 5230: uvm_test_top.env.a.d [DRV] mode:readd, addr:91, wdata:1340967957, rdata:0, slverr:0
# ** Error: APB SVA: Invalid address but PSLVERR not asserted
#    Time: 5250 ns Started: 5250 ns  Scope: top.vif.a_slverr_on_invalid_addr File: ../tb/apb_if.sv Line: 76 Expr: pslverr
# UVM_INFO ../uvc/env/apb_ram_scoreboard.sv(41) @ 5270: uvm_test_top.env.s [SCO] SLV ERROR during READ OP
# ----------------------------------------------------------------
# ** Warning: APB SVA: PRDATA is unknown during valid read
#    Time: 5270 ns Started: 5270 ns  Scope: top.vif.a_prdata_valid_on_read File: ../tb/apb_if.sv Line: 60 Expr: ~$isunknown(prdata)
# UVM_INFO ../uvc/env/apb_ram_driver.sv(78) @ 5290: uvm_test_top.env.a.d [DRV] mode:readd, addr:44, wdata:3922692892, rdata:0, slverr:0
# ** Error: APB SVA: Invalid address but PSLVERR not asserted
#    Time: 5310 ns Started: 5310 ns  Scope: top.vif.a_slverr_on_invalid_addr File: ../tb/apb_if.sv Line: 76 Expr: pslverr
# UVM_INFO ../uvc/env/apb_ram_scoreboard.sv(41) @ 5330: uvm_test_top.env.s [SCO] SLV ERROR during READ OP
# ----------------------------------------------------------------
# ** Warning: APB SVA: PRDATA is unknown during valid read
#    Time: 5330 ns Started: 5330 ns  Scope: top.vif.a_prdata_valid_on_read File: ../tb/apb_if.sv Line: 60 Expr: ~$isunknown(prdata)
# UVM_INFO ../uvc/env/apb_ram_driver.sv(78) @ 5350: uvm_test_top.env.a.d [DRV] mode:readd, addr:72, wdata:1326557156, rdata:0, slverr:0
# ** Error: APB SVA: Invalid address but PSLVERR not asserted
#    Time: 5370 ns Started: 5370 ns  Scope: top.vif.a_slverr_on_invalid_addr File: ../tb/apb_if.sv Line: 76 Expr: pslverr
# UVM_INFO ../uvc/env/apb_ram_scoreboard.sv(41) @ 5390: uvm_test_top.env.s [SCO] SLV ERROR during READ OP
# ----------------------------------------------------------------
# ** Warning: APB SVA: PRDATA is unknown during valid read
#    Time: 5390 ns Started: 5390 ns  Scope: top.vif.a_prdata_valid_on_read File: ../tb/apb_if.sv Line: 60 Expr: ~$isunknown(prdata)
# UVM_INFO ../uvc/env/apb_ram_driver.sv(78) @ 5410: uvm_test_top.env.a.d [DRV] mode:readd, addr:87, wdata:4110560064, rdata:0, slverr:0
# ** Error: APB SVA: Invalid address but PSLVERR not asserted
#    Time: 5430 ns Started: 5430 ns  Scope: top.vif.a_slverr_on_invalid_addr File: ../tb/apb_if.sv Line: 76 Expr: pslverr
# UVM_INFO ../uvc/env/apb_ram_scoreboard.sv(41) @ 5450: uvm_test_top.env.s [SCO] SLV ERROR during READ OP
# ----------------------------------------------------------------
# ** Warning: APB SVA: PRDATA is unknown during valid read
#    Time: 5450 ns Started: 5450 ns  Scope: top.vif.a_prdata_valid_on_read File: ../tb/apb_if.sv Line: 60 Expr: ~$isunknown(prdata)
# UVM_INFO ../uvc/env/apb_ram_driver.sv(78) @ 5470: uvm_test_top.env.a.d [DRV] mode:readd, addr:37, wdata:1689707734, rdata:0, slverr:0
# ** Error: APB SVA: Invalid address but PSLVERR not asserted
#    Time: 5490 ns Started: 5490 ns  Scope: top.vif.a_slverr_on_invalid_addr File: ../tb/apb_if.sv Line: 76 Expr: pslverr
# UVM_INFO ../uvc/env/apb_ram_scoreboard.sv(41) @ 5510: uvm_test_top.env.s [SCO] SLV ERROR during READ OP
# ----------------------------------------------------------------
# ** Warning: APB SVA: PRDATA is unknown during valid read
#    Time: 5510 ns Started: 5510 ns  Scope: top.vif.a_prdata_valid_on_read File: ../tb/apb_if.sv Line: 60 Expr: ~$isunknown(prdata)
# UVM_INFO ../uvc/env/apb_ram_driver.sv(78) @ 5530: uvm_test_top.env.a.d [DRV] mode:readd, addr:48, wdata:3745644506, rdata:0, slverr:0
# ** Error: APB SVA: Invalid address but PSLVERR not asserted
#    Time: 5550 ns Started: 5550 ns  Scope: top.vif.a_slverr_on_invalid_addr File: ../tb/apb_if.sv Line: 76 Expr: pslverr
# UVM_INFO ../uvc/env/apb_ram_scoreboard.sv(41) @ 5570: uvm_test_top.env.s [SCO] SLV ERROR during READ OP
# ----------------------------------------------------------------
# ** Warning: APB SVA: PRDATA is unknown during valid read
#    Time: 5570 ns Started: 5570 ns  Scope: top.vif.a_prdata_valid_on_read File: ../tb/apb_if.sv Line: 60 Expr: ~$isunknown(prdata)
# UVM_INFO ../uvc/env/apb_ram_driver.sv(78) @ 5590: uvm_test_top.env.a.d [DRV] mode:readd, addr:99, wdata:1687574432, rdata:0, slverr:0
# ** Error: APB SVA: Invalid address but PSLVERR not asserted
#    Time: 5610 ns Started: 5610 ns  Scope: top.vif.a_slverr_on_invalid_addr File: ../tb/apb_if.sv Line: 76 Expr: pslverr
# UVM_INFO ../uvc/env/apb_ram_scoreboard.sv(41) @ 5630: uvm_test_top.env.s [SCO] SLV ERROR during READ OP
# ----------------------------------------------------------------
# ** Warning: APB SVA: PRDATA is unknown during valid read
#    Time: 5630 ns Started: 5630 ns  Scope: top.vif.a_prdata_valid_on_read File: ../tb/apb_if.sv Line: 60 Expr: ~$isunknown(prdata)
# UVM_INFO ../uvc/env/apb_ram_driver.sv(78) @ 5650: uvm_test_top.env.a.d [DRV] mode:readd, addr:67, wdata:2512043228, rdata:0, slverr:0
# ** Error: APB SVA: Invalid address but PSLVERR not asserted
#    Time: 5670 ns Started: 5670 ns  Scope: top.vif.a_slverr_on_invalid_addr File: ../tb/apb_if.sv Line: 76 Expr: pslverr
# UVM_INFO ../uvc/env/apb_ram_scoreboard.sv(41) @ 5690: uvm_test_top.env.s [SCO] SLV ERROR during READ OP
# ----------------------------------------------------------------
# ** Warning: APB SVA: PRDATA is unknown during valid read
#    Time: 5690 ns Started: 5690 ns  Scope: top.vif.a_prdata_valid_on_read File: ../tb/apb_if.sv Line: 60 Expr: ~$isunknown(prdata)
# UVM_INFO ../uvc/env/apb_ram_driver.sv(78) @ 5710: uvm_test_top.env.a.d [DRV] mode:readd, addr:65, wdata:2421750047, rdata:0, slverr:0
# ** Error: APB SVA: Invalid address but PSLVERR not asserted
#    Time: 5730 ns Started: 5730 ns  Scope: top.vif.a_slverr_on_invalid_addr File: ../tb/apb_if.sv Line: 76 Expr: pslverr
# UVM_INFO ../uvc/env/apb_ram_scoreboard.sv(41) @ 5750: uvm_test_top.env.s [SCO] SLV ERROR during READ OP
# ----------------------------------------------------------------
# ** Warning: APB SVA: PRDATA is unknown during valid read
#    Time: 5750 ns Started: 5750 ns  Scope: top.vif.a_prdata_valid_on_read File: ../tb/apb_if.sv Line: 60 Expr: ~$isunknown(prdata)
# UVM_INFO ../uvc/env/apb_ram_driver.sv(78) @ 5770: uvm_test_top.env.a.d [DRV] mode:readd, addr:54, wdata:3543838675, rdata:0, slverr:0
# ** Error: APB SVA: Invalid address but PSLVERR not asserted
#    Time: 5790 ns Started: 5790 ns  Scope: top.vif.a_slverr_on_invalid_addr File: ../tb/apb_if.sv Line: 76 Expr: pslverr
# UVM_INFO ../uvc/env/apb_ram_scoreboard.sv(41) @ 5810: uvm_test_top.env.s [SCO] SLV ERROR during READ OP
# ----------------------------------------------------------------
# ** Warning: APB SVA: PRDATA is unknown during valid read
#    Time: 5810 ns Started: 5810 ns  Scope: top.vif.a_prdata_valid_on_read File: ../tb/apb_if.sv Line: 60 Expr: ~$isunknown(prdata)
# UVM_INFO ../uvc/env/apb_ram_driver.sv(78) @ 5830: uvm_test_top.env.a.d [DRV] mode:readd, addr:39, wdata:2455390672, rdata:0, slverr:0
# ** Error: APB SVA: Invalid address but PSLVERR not asserted
#    Time: 5850 ns Started: 5850 ns  Scope: top.vif.a_slverr_on_invalid_addr File: ../tb/apb_if.sv Line: 76 Expr: pslverr
# UVM_INFO ../uvc/env/apb_ram_scoreboard.sv(41) @ 5870: uvm_test_top.env.s [SCO] SLV ERROR during READ OP
# ----------------------------------------------------------------
# ** Warning: APB SVA: PRDATA is unknown during valid read
#    Time: 5870 ns Started: 5870 ns  Scope: top.vif.a_prdata_valid_on_read File: ../tb/apb_if.sv Line: 60 Expr: ~$isunknown(prdata)
# UVM_INFO ../uvc/env/apb_ram_driver.sv(78) @ 5890: uvm_test_top.env.a.d [DRV] mode:readd, addr:57, wdata:4275940845, rdata:0, slverr:0
# ** Error: APB SVA: Invalid address but PSLVERR not asserted
#    Time: 5910 ns Started: 5910 ns  Scope: top.vif.a_slverr_on_invalid_addr File: ../tb/apb_if.sv Line: 76 Expr: pslverr
# UVM_INFO ../uvc/env/apb_ram_scoreboard.sv(41) @ 5930: uvm_test_top.env.s [SCO] SLV ERROR during READ OP
# ----------------------------------------------------------------
# ** Warning: APB SVA: PRDATA is unknown during valid read
#    Time: 5930 ns Started: 5930 ns  Scope: top.vif.a_prdata_valid_on_read File: ../tb/apb_if.sv Line: 60 Expr: ~$isunknown(prdata)
# UVM_INFO ../uvc/env/apb_ram_driver.sv(78) @ 5950: uvm_test_top.env.a.d [DRV] mode:readd, addr:60, wdata:326076968, rdata:0, slverr:0
# ** Error: APB SVA: Invalid address but PSLVERR not asserted
#    Time: 5970 ns Started: 5970 ns  Scope: top.vif.a_slverr_on_invalid_addr File: ../tb/apb_if.sv Line: 76 Expr: pslverr
# UVM_INFO ../uvc/env/apb_ram_scoreboard.sv(41) @ 5990: uvm_test_top.env.s [SCO] SLV ERROR during READ OP
# ----------------------------------------------------------------
# ** Warning: APB SVA: PRDATA is unknown during valid read
#    Time: 5990 ns Started: 5990 ns  Scope: top.vif.a_prdata_valid_on_read File: ../tb/apb_if.sv Line: 60 Expr: ~$isunknown(prdata)
# UVM_INFO ../uvc/env/apb_ram_driver.sv(78) @ 6010: uvm_test_top.env.a.d [DRV] mode:readd, addr:60, wdata:2230595295, rdata:0, slverr:0
# ** Error: APB SVA: Invalid address but PSLVERR not asserted
#    Time: 6030 ns Started: 6030 ns  Scope: top.vif.a_slverr_on_invalid_addr File: ../tb/apb_if.sv Line: 76 Expr: pslverr
# UVM_INFO ../uvc/env/apb_ram_scoreboard.sv(41) @ 6050: uvm_test_top.env.s [SCO] SLV ERROR during READ OP
# ----------------------------------------------------------------
# ** Warning: APB SVA: PRDATA is unknown during valid read
#    Time: 6050 ns Started: 6050 ns  Scope: top.vif.a_prdata_valid_on_read File: ../tb/apb_if.sv Line: 60 Expr: ~$isunknown(prdata)
# UVM_INFO ../uvc/env/apb_ram_driver.sv(78) @ 6070: uvm_test_top.env.a.d [DRV] mode:readd, addr:34, wdata:2725359598, rdata:0, slverr:0
# ** Error: APB SVA: Invalid address but PSLVERR not asserted
#    Time: 6090 ns Started: 6090 ns  Scope: top.vif.a_slverr_on_invalid_addr File: ../tb/apb_if.sv Line: 76 Expr: pslverr
# UVM_INFO ../uvc/env/apb_ram_scoreboard.sv(41) @ 6110: uvm_test_top.env.s [SCO] SLV ERROR during READ OP
# ----------------------------------------------------------------
# ** Warning: APB SVA: PRDATA is unknown during valid read
#    Time: 6110 ns Started: 6110 ns  Scope: top.vif.a_prdata_valid_on_read File: ../tb/apb_if.sv Line: 60 Expr: ~$isunknown(prdata)
# UVM_INFO ../uvc/env/apb_ram_driver.sv(78) @ 6130: uvm_test_top.env.a.d [DRV] mode:readd, addr:98, wdata:2308568196, rdata:0, slverr:0
# ** Error: APB SVA: Invalid address but PSLVERR not asserted
#    Time: 6150 ns Started: 6150 ns  Scope: top.vif.a_slverr_on_invalid_addr File: ../tb/apb_if.sv Line: 76 Expr: pslverr
# UVM_INFO ../uvc/env/apb_ram_scoreboard.sv(41) @ 6170: uvm_test_top.env.s [SCO] SLV ERROR during READ OP
# ----------------------------------------------------------------
# ** Warning: APB SVA: PRDATA is unknown during valid read
#    Time: 6170 ns Started: 6170 ns  Scope: top.vif.a_prdata_valid_on_read File: ../tb/apb_if.sv Line: 60 Expr: ~$isunknown(prdata)
# UVM_INFO ../uvc/env/apb_ram_driver.sv(78) @ 6190: uvm_test_top.env.a.d [DRV] mode:readd, addr:86, wdata:651093078, rdata:0, slverr:0
# ** Error: APB SVA: Invalid address but PSLVERR not asserted
#    Time: 6210 ns Started: 6210 ns  Scope: top.vif.a_slverr_on_invalid_addr File: ../tb/apb_if.sv Line: 76 Expr: pslverr
# UVM_INFO ../uvc/env/apb_ram_scoreboard.sv(41) @ 6230: uvm_test_top.env.s [SCO] SLV ERROR during READ OP
# ----------------------------------------------------------------
# ** Warning: APB SVA: PRDATA is unknown during valid read
#    Time: 6230 ns Started: 6230 ns  Scope: top.vif.a_prdata_valid_on_read File: ../tb/apb_if.sv Line: 60 Expr: ~$isunknown(prdata)
# UVM_INFO ../uvc/env/apb_ram_driver.sv(78) @ 6250: uvm_test_top.env.a.d [DRV] mode:readd, addr:89, wdata:701912914, rdata:0, slverr:0
# ** Error: APB SVA: Invalid address but PSLVERR not asserted
#    Time: 6270 ns Started: 6270 ns  Scope: top.vif.a_slverr_on_invalid_addr File: ../tb/apb_if.sv Line: 76 Expr: pslverr
# UVM_INFO ../uvc/env/apb_ram_scoreboard.sv(41) @ 6290: uvm_test_top.env.s [SCO] SLV ERROR during READ OP
# ----------------------------------------------------------------
# ** Warning: APB SVA: PRDATA is unknown during valid read
#    Time: 6290 ns Started: 6290 ns  Scope: top.vif.a_prdata_valid_on_read File: ../tb/apb_if.sv Line: 60 Expr: ~$isunknown(prdata)
# UVM_INFO ../uvc/env/apb_ram_driver.sv(78) @ 6310: uvm_test_top.env.a.d [DRV] mode:readd, addr:42, wdata:1258764651, rdata:0, slverr:0
# ** Error: APB SVA: Invalid address but PSLVERR not asserted
#    Time: 6330 ns Started: 6330 ns  Scope: top.vif.a_slverr_on_invalid_addr File: ../tb/apb_if.sv Line: 76 Expr: pslverr
# UVM_INFO ../uvc/env/apb_ram_scoreboard.sv(41) @ 6350: uvm_test_top.env.s [SCO] SLV ERROR during READ OP
# ----------------------------------------------------------------
# ** Warning: APB SVA: PRDATA is unknown during valid read
#    Time: 6350 ns Started: 6350 ns  Scope: top.vif.a_prdata_valid_on_read File: ../tb/apb_if.sv Line: 60 Expr: ~$isunknown(prdata)
# UVM_INFO ../uvc/env/apb_ram_driver.sv(78) @ 6370: uvm_test_top.env.a.d [DRV] mode:readd, addr:67, wdata:2675317075, rdata:0, slverr:0
# ** Error: APB SVA: Invalid address but PSLVERR not asserted
#    Time: 6390 ns Started: 6390 ns  Scope: top.vif.a_slverr_on_invalid_addr File: ../tb/apb_if.sv Line: 76 Expr: pslverr
# UVM_INFO ../uvc/env/apb_ram_scoreboard.sv(41) @ 6410: uvm_test_top.env.s [SCO] SLV ERROR during READ OP
# ----------------------------------------------------------------
# ** Warning: APB SVA: PRDATA is unknown during valid read
#    Time: 6410 ns Started: 6410 ns  Scope: top.vif.a_prdata_valid_on_read File: ../tb/apb_if.sv Line: 60 Expr: ~$isunknown(prdata)
# UVM_INFO ../uvc/env/apb_ram_driver.sv(78) @ 6430: uvm_test_top.env.a.d [DRV] mode:readd, addr:42, wdata:1930987503, rdata:0, slverr:0
# ** Error: APB SVA: Invalid address but PSLVERR not asserted
#    Time: 6450 ns Started: 6450 ns  Scope: top.vif.a_slverr_on_invalid_addr File: ../tb/apb_if.sv Line: 76 Expr: pslverr
# UVM_INFO ../uvc/env/apb_ram_scoreboard.sv(41) @ 6470: uvm_test_top.env.s [SCO] SLV ERROR during READ OP
# ----------------------------------------------------------------
# ** Warning: APB SVA: PRDATA is unknown during valid read
#    Time: 6470 ns Started: 6470 ns  Scope: top.vif.a_prdata_valid_on_read File: ../tb/apb_if.sv Line: 60 Expr: ~$isunknown(prdata)
# UVM_INFO ../uvc/env/apb_ram_driver.sv(78) @ 6490: uvm_test_top.env.a.d [DRV] mode:readd, addr:93, wdata:2200227099, rdata:0, slverr:0
# ** Error: APB SVA: Invalid address but PSLVERR not asserted
#    Time: 6510 ns Started: 6510 ns  Scope: top.vif.a_slverr_on_invalid_addr File: ../tb/apb_if.sv Line: 76 Expr: pslverr
# UVM_INFO ../uvc/env/apb_ram_scoreboard.sv(41) @ 6530: uvm_test_top.env.s [SCO] SLV ERROR during READ OP
# ----------------------------------------------------------------
# ** Warning: APB SVA: PRDATA is unknown during valid read
#    Time: 6530 ns Started: 6530 ns  Scope: top.vif.a_prdata_valid_on_read File: ../tb/apb_if.sv Line: 60 Expr: ~$isunknown(prdata)
# UVM_INFO ../uvc/env/apb_ram_driver.sv(78) @ 6550: uvm_test_top.env.a.d [DRV] mode:readd, addr:48, wdata:545298632, rdata:0, slverr:0
# ** Error: APB SVA: Invalid address but PSLVERR not asserted
#    Time: 6570 ns Started: 6570 ns  Scope: top.vif.a_slverr_on_invalid_addr File: ../tb/apb_if.sv Line: 76 Expr: pslverr
# UVM_INFO ../uvc/env/apb_ram_scoreboard.sv(41) @ 6590: uvm_test_top.env.s [SCO] SLV ERROR during READ OP
# ----------------------------------------------------------------
# ** Warning: APB SVA: PRDATA is unknown during valid read
#    Time: 6590 ns Started: 6590 ns  Scope: top.vif.a_prdata_valid_on_read File: ../tb/apb_if.sv Line: 60 Expr: ~$isunknown(prdata)
# UVM_INFO ../uvc/env/apb_ram_driver.sv(78) @ 6610: uvm_test_top.env.a.d [DRV] mode:readd, addr:47, wdata:3286523773, rdata:0, slverr:0
# ** Error: APB SVA: Invalid address but PSLVERR not asserted
#    Time: 6630 ns Started: 6630 ns  Scope: top.vif.a_slverr_on_invalid_addr File: ../tb/apb_if.sv Line: 76 Expr: pslverr
# UVM_INFO ../uvc/env/apb_ram_scoreboard.sv(41) @ 6650: uvm_test_top.env.s [SCO] SLV ERROR during READ OP
# ----------------------------------------------------------------
# ** Warning: APB SVA: PRDATA is unknown during valid read
#    Time: 6650 ns Started: 6650 ns  Scope: top.vif.a_prdata_valid_on_read File: ../tb/apb_if.sv Line: 60 Expr: ~$isunknown(prdata)
# UVM_INFO ../uvc/env/apb_ram_driver.sv(78) @ 6670: uvm_test_top.env.a.d [DRV] mode:readd, addr:83, wdata:1055755987, rdata:0, slverr:0
# ** Error: APB SVA: Invalid address but PSLVERR not asserted
#    Time: 6690 ns Started: 6690 ns  Scope: top.vif.a_slverr_on_invalid_addr File: ../tb/apb_if.sv Line: 76 Expr: pslverr
# UVM_INFO ../uvc/env/apb_ram_scoreboard.sv(41) @ 6710: uvm_test_top.env.s [SCO] SLV ERROR during READ OP
# ----------------------------------------------------------------
# ** Warning: APB SVA: PRDATA is unknown during valid read
#    Time: 6710 ns Started: 6710 ns  Scope: top.vif.a_prdata_valid_on_read File: ../tb/apb_if.sv Line: 60 Expr: ~$isunknown(prdata)
# UVM_INFO ../uvc/env/apb_ram_driver.sv(78) @ 6730: uvm_test_top.env.a.d [DRV] mode:readd, addr:59, wdata:78192278, rdata:0, slverr:0
# ** Error: APB SVA: Invalid address but PSLVERR not asserted
#    Time: 6750 ns Started: 6750 ns  Scope: top.vif.a_slverr_on_invalid_addr File: ../tb/apb_if.sv Line: 76 Expr: pslverr
# UVM_INFO ../uvc/env/apb_ram_scoreboard.sv(41) @ 6770: uvm_test_top.env.s [SCO] SLV ERROR during READ OP
# ----------------------------------------------------------------
# ** Warning: APB SVA: PRDATA is unknown during valid read
#    Time: 6770 ns Started: 6770 ns  Scope: top.vif.a_prdata_valid_on_read File: ../tb/apb_if.sv Line: 60 Expr: ~$isunknown(prdata)
# UVM_INFO ../uvc/env/apb_ram_driver.sv(78) @ 6790: uvm_test_top.env.a.d [DRV] mode:readd, addr:51, wdata:3810780570, rdata:0, slverr:0
# ** Error: APB SVA: Invalid address but PSLVERR not asserted
#    Time: 6810 ns Started: 6810 ns  Scope: top.vif.a_slverr_on_invalid_addr File: ../tb/apb_if.sv Line: 76 Expr: pslverr
# UVM_INFO ../uvc/env/apb_ram_scoreboard.sv(41) @ 6830: uvm_test_top.env.s [SCO] SLV ERROR during READ OP
# ----------------------------------------------------------------
# ** Warning: APB SVA: PRDATA is unknown during valid read
#    Time: 6830 ns Started: 6830 ns  Scope: top.vif.a_prdata_valid_on_read File: ../tb/apb_if.sv Line: 60 Expr: ~$isunknown(prdata)
# UVM_INFO ../uvc/env/apb_ram_driver.sv(78) @ 6850: uvm_test_top.env.a.d [DRV] mode:readd, addr:33, wdata:322757482, rdata:0, slverr:0
# ** Error: APB SVA: Invalid address but PSLVERR not asserted
#    Time: 6870 ns Started: 6870 ns  Scope: top.vif.a_slverr_on_invalid_addr File: ../tb/apb_if.sv Line: 76 Expr: pslverr
# UVM_INFO ../uvc/env/apb_ram_scoreboard.sv(41) @ 6890: uvm_test_top.env.s [SCO] SLV ERROR during READ OP
# ----------------------------------------------------------------
# ** Warning: APB SVA: PRDATA is unknown during valid read
#    Time: 6890 ns Started: 6890 ns  Scope: top.vif.a_prdata_valid_on_read File: ../tb/apb_if.sv Line: 60 Expr: ~$isunknown(prdata)
# UVM_INFO ../uvc/env/apb_ram_driver.sv(78) @ 6910: uvm_test_top.env.a.d [DRV] mode:readd, addr:78, wdata:86746718, rdata:0, slverr:0
# ** Error: APB SVA: Invalid address but PSLVERR not asserted
#    Time: 6930 ns Started: 6930 ns  Scope: top.vif.a_slverr_on_invalid_addr File: ../tb/apb_if.sv Line: 76 Expr: pslverr
# UVM_INFO ../uvc/env/apb_ram_scoreboard.sv(41) @ 6950: uvm_test_top.env.s [SCO] SLV ERROR during READ OP
# ----------------------------------------------------------------
# ** Warning: APB SVA: PRDATA is unknown during valid read
#    Time: 6950 ns Started: 6950 ns  Scope: top.vif.a_prdata_valid_on_read File: ../tb/apb_if.sv Line: 60 Expr: ~$isunknown(prdata)
# UVM_INFO ../uvc/env/apb_ram_driver.sv(78) @ 6970: uvm_test_top.env.a.d [DRV] mode:readd, addr:43, wdata:2478945088, rdata:0, slverr:0
# ** Error: APB SVA: Invalid address but PSLVERR not asserted
#    Time: 6990 ns Started: 6990 ns  Scope: top.vif.a_slverr_on_invalid_addr File: ../tb/apb_if.sv Line: 76 Expr: pslverr
# UVM_INFO ../uvc/env/apb_ram_scoreboard.sv(41) @ 7010: uvm_test_top.env.s [SCO] SLV ERROR during READ OP
# ----------------------------------------------------------------
# ** Warning: APB SVA: PRDATA is unknown during valid read
#    Time: 7010 ns Started: 7010 ns  Scope: top.vif.a_prdata_valid_on_read File: ../tb/apb_if.sv Line: 60 Expr: ~$isunknown(prdata)
# UVM_INFO ../uvc/env/apb_ram_driver.sv(78) @ 7030: uvm_test_top.env.a.d [DRV] mode:readd, addr:87, wdata:4077937275, rdata:0, slverr:0
# ** Error: APB SVA: Invalid address but PSLVERR not asserted
#    Time: 7050 ns Started: 7050 ns  Scope: top.vif.a_slverr_on_invalid_addr File: ../tb/apb_if.sv Line: 76 Expr: pslverr
# UVM_INFO ../uvc/env/apb_ram_scoreboard.sv(41) @ 7070: uvm_test_top.env.s [SCO] SLV ERROR during READ OP
# ----------------------------------------------------------------
# ** Warning: APB SVA: PRDATA is unknown during valid read
#    Time: 7070 ns Started: 7070 ns  Scope: top.vif.a_prdata_valid_on_read File: ../tb/apb_if.sv Line: 60 Expr: ~$isunknown(prdata)
# UVM_INFO ../uvc/env/apb_ram_driver.sv(78) @ 7090: uvm_test_top.env.a.d [DRV] mode:readd, addr:78, wdata:2148780082, rdata:0, slverr:0
# ** Error: APB SVA: Invalid address but PSLVERR not asserted
#    Time: 7110 ns Started: 7110 ns  Scope: top.vif.a_slverr_on_invalid_addr File: ../tb/apb_if.sv Line: 76 Expr: pslverr
# UVM_INFO ../uvc/env/apb_ram_scoreboard.sv(41) @ 7130: uvm_test_top.env.s [SCO] SLV ERROR during READ OP
# ----------------------------------------------------------------
# ** Warning: APB SVA: PRDATA is unknown during valid read
#    Time: 7130 ns Started: 7130 ns  Scope: top.vif.a_prdata_valid_on_read File: ../tb/apb_if.sv Line: 60 Expr: ~$isunknown(prdata)
# UVM_INFO ../uvc/env/apb_ram_driver.sv(78) @ 7150: uvm_test_top.env.a.d [DRV] mode:readd, addr:52, wdata:3687998549, rdata:0, slverr:0
# ** Error: APB SVA: Invalid address but PSLVERR not asserted
#    Time: 7170 ns Started: 7170 ns  Scope: top.vif.a_slverr_on_invalid_addr File: ../tb/apb_if.sv Line: 76 Expr: pslverr
# UVM_INFO ../uvc/env/apb_ram_scoreboard.sv(41) @ 7190: uvm_test_top.env.s [SCO] SLV ERROR during READ OP
# ----------------------------------------------------------------
# ** Warning: APB SVA: PRDATA is unknown during valid read
#    Time: 7190 ns Started: 7190 ns  Scope: top.vif.a_prdata_valid_on_read File: ../tb/apb_if.sv Line: 60 Expr: ~$isunknown(prdata)
# UVM_INFO ../uvc/env/apb_ram_driver.sv(78) @ 7210: uvm_test_top.env.a.d [DRV] mode:readd, addr:75, wdata:1969942284, rdata:0, slverr:0
# ** Error: APB SVA: Invalid address but PSLVERR not asserted
#    Time: 7230 ns Started: 7230 ns  Scope: top.vif.a_slverr_on_invalid_addr File: ../tb/apb_if.sv Line: 76 Expr: pslverr
# UVM_INFO ../uvc/env/apb_ram_scoreboard.sv(41) @ 7250: uvm_test_top.env.s [SCO] SLV ERROR during READ OP
# ----------------------------------------------------------------
# ** Warning: APB SVA: PRDATA is unknown during valid read
#    Time: 7250 ns Started: 7250 ns  Scope: top.vif.a_prdata_valid_on_read File: ../tb/apb_if.sv Line: 60 Expr: ~$isunknown(prdata)
# UVM_INFO ../uvc/env/apb_ram_driver.sv(78) @ 7270: uvm_test_top.env.a.d [DRV] mode:readd, addr:32, wdata:3337416416, rdata:0, slverr:0
# ** Error: APB SVA: Invalid address but PSLVERR not asserted
#    Time: 7290 ns Started: 7290 ns  Scope: top.vif.a_slverr_on_invalid_addr File: ../tb/apb_if.sv Line: 76 Expr: pslverr
# UVM_INFO ../uvc/env/apb_ram_scoreboard.sv(41) @ 7310: uvm_test_top.env.s [SCO] SLV ERROR during READ OP
# ----------------------------------------------------------------
# ** Warning: APB SVA: PRDATA is unknown during valid read
#    Time: 7310 ns Started: 7310 ns  Scope: top.vif.a_prdata_valid_on_read File: ../tb/apb_if.sv Line: 60 Expr: ~$isunknown(prdata)
# UVM_INFO ../uvc/env/apb_ram_driver.sv(78) @ 7330: uvm_test_top.env.a.d [DRV] mode:readd, addr:39, wdata:1710853968, rdata:0, slverr:0
# ** Error: APB SVA: Invalid address but PSLVERR not asserted
#    Time: 7350 ns Started: 7350 ns  Scope: top.vif.a_slverr_on_invalid_addr File: ../tb/apb_if.sv Line: 76 Expr: pslverr
# UVM_INFO ../uvc/env/apb_ram_scoreboard.sv(41) @ 7370: uvm_test_top.env.s [SCO] SLV ERROR during READ OP
# ----------------------------------------------------------------
# ** Warning: APB SVA: PRDATA is unknown during valid read
#    Time: 7370 ns Started: 7370 ns  Scope: top.vif.a_prdata_valid_on_read File: ../tb/apb_if.sv Line: 60 Expr: ~$isunknown(prdata)
# UVM_INFO ../uvc/env/apb_ram_driver.sv(78) @ 7390: uvm_test_top.env.a.d [DRV] mode:readd, addr:87, wdata:821409746, rdata:0, slverr:0
# ** Error: APB SVA: Invalid address but PSLVERR not asserted
#    Time: 7410 ns Started: 7410 ns  Scope: top.vif.a_slverr_on_invalid_addr File: ../tb/apb_if.sv Line: 76 Expr: pslverr
# UVM_INFO ../uvc/env/apb_ram_scoreboard.sv(41) @ 7430: uvm_test_top.env.s [SCO] SLV ERROR during READ OP
# ----------------------------------------------------------------
# ** Warning: APB SVA: PRDATA is unknown during valid read
#    Time: 7430 ns Started: 7430 ns  Scope: top.vif.a_prdata_valid_on_read File: ../tb/apb_if.sv Line: 60 Expr: ~$isunknown(prdata)
# UVM_INFO ../uvc/env/apb_ram_driver.sv(78) @ 7450: uvm_test_top.env.a.d [DRV] mode:readd, addr:59, wdata:153223450, rdata:0, slverr:0
# ** Error: APB SVA: Invalid address but PSLVERR not asserted
#    Time: 7470 ns Started: 7470 ns  Scope: top.vif.a_slverr_on_invalid_addr File: ../tb/apb_if.sv Line: 76 Expr: pslverr
# UVM_INFO ../uvc/env/apb_ram_scoreboard.sv(41) @ 7490: uvm_test_top.env.s [SCO] SLV ERROR during READ OP
# ----------------------------------------------------------------
# ** Warning: APB SVA: PRDATA is unknown during valid read
#    Time: 7490 ns Started: 7490 ns  Scope: top.vif.a_prdata_valid_on_read File: ../tb/apb_if.sv Line: 60 Expr: ~$isunknown(prdata)
# UVM_INFO ../uvc/env/apb_ram_driver.sv(78) @ 7510: uvm_test_top.env.a.d [DRV] mode:readd, addr:60, wdata:166857563, rdata:0, slverr:0
# ** Error: APB SVA: Invalid address but PSLVERR not asserted
#    Time: 7530 ns Started: 7530 ns  Scope: top.vif.a_slverr_on_invalid_addr File: ../tb/apb_if.sv Line: 76 Expr: pslverr
# UVM_INFO ../uvc/env/apb_ram_scoreboard.sv(41) @ 7550: uvm_test_top.env.s [SCO] SLV ERROR during READ OP
# ----------------------------------------------------------------
# ** Warning: APB SVA: PRDATA is unknown during valid read
#    Time: 7550 ns Started: 7550 ns  Scope: top.vif.a_prdata_valid_on_read File: ../tb/apb_if.sv Line: 60 Expr: ~$isunknown(prdata)
# UVM_INFO ../uvc/env/apb_ram_driver.sv(78) @ 7570: uvm_test_top.env.a.d [DRV] mode:readd, addr:50, wdata:664546674, rdata:0, slverr:0
# ** Error: APB SVA: Invalid address but PSLVERR not asserted
#    Time: 7590 ns Started: 7590 ns  Scope: top.vif.a_slverr_on_invalid_addr File: ../tb/apb_if.sv Line: 76 Expr: pslverr
# UVM_INFO ../uvc/env/apb_ram_scoreboard.sv(41) @ 7610: uvm_test_top.env.s [SCO] SLV ERROR during READ OP
# ----------------------------------------------------------------
# ** Warning: APB SVA: PRDATA is unknown during valid read
#    Time: 7610 ns Started: 7610 ns  Scope: top.vif.a_prdata_valid_on_read File: ../tb/apb_if.sv Line: 60 Expr: ~$isunknown(prdata)
# UVM_INFO ../uvc/env/apb_ram_driver.sv(78) @ 7630: uvm_test_top.env.a.d [DRV] mode:readd, addr:72, wdata:1030322138, rdata:0, slverr:0
# ** Error: APB SVA: Invalid address but PSLVERR not asserted
#    Time: 7650 ns Started: 7650 ns  Scope: top.vif.a_slverr_on_invalid_addr File: ../tb/apb_if.sv Line: 76 Expr: pslverr
# UVM_INFO ../uvc/env/apb_ram_scoreboard.sv(41) @ 7670: uvm_test_top.env.s [SCO] SLV ERROR during READ OP
# ----------------------------------------------------------------
# ** Warning: APB SVA: PRDATA is unknown during valid read
#    Time: 7670 ns Started: 7670 ns  Scope: top.vif.a_prdata_valid_on_read File: ../tb/apb_if.sv Line: 60 Expr: ~$isunknown(prdata)
# UVM_INFO ../uvc/env/apb_ram_driver.sv(78) @ 7690: uvm_test_top.env.a.d [DRV] mode:readd, addr:32, wdata:1988183800, rdata:0, slverr:0
# ** Error: APB SVA: Invalid address but PSLVERR not asserted
#    Time: 7710 ns Started: 7710 ns  Scope: top.vif.a_slverr_on_invalid_addr File: ../tb/apb_if.sv Line: 76 Expr: pslverr
# UVM_INFO ../uvc/env/apb_ram_scoreboard.sv(41) @ 7730: uvm_test_top.env.s [SCO] SLV ERROR during READ OP
# ----------------------------------------------------------------
# ** Warning: APB SVA: PRDATA is unknown during valid read
#    Time: 7730 ns Started: 7730 ns  Scope: top.vif.a_prdata_valid_on_read File: ../tb/apb_if.sv Line: 60 Expr: ~$isunknown(prdata)
# UVM_INFO ../uvc/env/apb_ram_driver.sv(78) @ 7750: uvm_test_top.env.a.d [DRV] mode:readd, addr:44, wdata:3840895145, rdata:0, slverr:0
# ** Error: APB SVA: Invalid address but PSLVERR not asserted
#    Time: 7770 ns Started: 7770 ns  Scope: top.vif.a_slverr_on_invalid_addr File: ../tb/apb_if.sv Line: 76 Expr: pslverr
# UVM_INFO ../uvc/env/apb_ram_scoreboard.sv(41) @ 7790: uvm_test_top.env.s [SCO] SLV ERROR during READ OP
# ----------------------------------------------------------------
# ** Warning: APB SVA: PRDATA is unknown during valid read
#    Time: 7790 ns Started: 7790 ns  Scope: top.vif.a_prdata_valid_on_read File: ../tb/apb_if.sv Line: 60 Expr: ~$isunknown(prdata)
# UVM_INFO ../uvc/env/apb_ram_driver.sv(78) @ 7810: uvm_test_top.env.a.d [DRV] mode:readd, addr:37, wdata:2011130809, rdata:0, slverr:0
# ** Error: APB SVA: Invalid address but PSLVERR not asserted
#    Time: 7830 ns Started: 7830 ns  Scope: top.vif.a_slverr_on_invalid_addr File: ../tb/apb_if.sv Line: 76 Expr: pslverr
# UVM_INFO ../uvc/env/apb_ram_scoreboard.sv(41) @ 7850: uvm_test_top.env.s [SCO] SLV ERROR during READ OP
# ----------------------------------------------------------------
# ** Warning: APB SVA: PRDATA is unknown during valid read
#    Time: 7850 ns Started: 7850 ns  Scope: top.vif.a_prdata_valid_on_read File: ../tb/apb_if.sv Line: 60 Expr: ~$isunknown(prdata)
# UVM_INFO ../uvc/env/apb_ram_driver.sv(78) @ 7870: uvm_test_top.env.a.d [DRV] mode:readd, addr:58, wdata:1150916601, rdata:0, slverr:0
# ** Error: APB SVA: Invalid address but PSLVERR not asserted
#    Time: 7890 ns Started: 7890 ns  Scope: top.vif.a_slverr_on_invalid_addr File: ../tb/apb_if.sv Line: 76 Expr: pslverr
# UVM_INFO ../uvc/env/apb_ram_scoreboard.sv(41) @ 7910: uvm_test_top.env.s [SCO] SLV ERROR during READ OP
# ----------------------------------------------------------------
# ** Warning: APB SVA: PRDATA is unknown during valid read
#    Time: 7910 ns Started: 7910 ns  Scope: top.vif.a_prdata_valid_on_read File: ../tb/apb_if.sv Line: 60 Expr: ~$isunknown(prdata)
# UVM_INFO ../uvc/env/apb_ram_driver.sv(78) @ 7930: uvm_test_top.env.a.d [DRV] mode:readd, addr:59, wdata:2825991358, rdata:0, slverr:0
# ** Error: APB SVA: Invalid address but PSLVERR not asserted
#    Time: 7950 ns Started: 7950 ns  Scope: top.vif.a_slverr_on_invalid_addr File: ../tb/apb_if.sv Line: 76 Expr: pslverr
# UVM_INFO ../uvc/env/apb_ram_scoreboard.sv(41) @ 7970: uvm_test_top.env.s [SCO] SLV ERROR during READ OP
# ----------------------------------------------------------------
# ** Warning: APB SVA: PRDATA is unknown during valid read
#    Time: 7970 ns Started: 7970 ns  Scope: top.vif.a_prdata_valid_on_read File: ../tb/apb_if.sv Line: 60 Expr: ~$isunknown(prdata)
# UVM_INFO ../uvc/env/apb_ram_driver.sv(78) @ 7990: uvm_test_top.env.a.d [DRV] mode:readd, addr:58, wdata:2548276334, rdata:0, slverr:0
# ** Error: APB SVA: Invalid address but PSLVERR not asserted
#    Time: 8010 ns Started: 8010 ns  Scope: top.vif.a_slverr_on_invalid_addr File: ../tb/apb_if.sv Line: 76 Expr: pslverr
# UVM_INFO ../uvc/env/apb_ram_scoreboard.sv(41) @ 8030: uvm_test_top.env.s [SCO] SLV ERROR during READ OP
# ----------------------------------------------------------------
# ** Warning: APB SVA: PRDATA is unknown during valid read
#    Time: 8030 ns Started: 8030 ns  Scope: top.vif.a_prdata_valid_on_read File: ../tb/apb_if.sv Line: 60 Expr: ~$isunknown(prdata)
# UVM_INFO ../uvc/env/apb_ram_driver.sv(78) @ 8050: uvm_test_top.env.a.d [DRV] mode:readd, addr:89, wdata:3590852060, rdata:0, slverr:0
# ** Error: APB SVA: Invalid address but PSLVERR not asserted
#    Time: 8070 ns Started: 8070 ns  Scope: top.vif.a_slverr_on_invalid_addr File: ../tb/apb_if.sv Line: 76 Expr: pslverr
# UVM_INFO ../uvc/env/apb_ram_scoreboard.sv(41) @ 8090: uvm_test_top.env.s [SCO] SLV ERROR during READ OP
# ----------------------------------------------------------------
# ** Warning: APB SVA: PRDATA is unknown during valid read
#    Time: 8090 ns Started: 8090 ns  Scope: top.vif.a_prdata_valid_on_read File: ../tb/apb_if.sv Line: 60 Expr: ~$isunknown(prdata)
# UVM_INFO ../uvc/env/apb_ram_driver.sv(78) @ 8110: uvm_test_top.env.a.d [DRV] mode:readd, addr:51, wdata:769091389, rdata:0, slverr:0
# ** Error: APB SVA: Invalid address but PSLVERR not asserted
#    Time: 8130 ns Started: 8130 ns  Scope: top.vif.a_slverr_on_invalid_addr File: ../tb/apb_if.sv Line: 76 Expr: pslverr
# UVM_INFO ../uvc/env/apb_ram_scoreboard.sv(41) @ 8150: uvm_test_top.env.s [SCO] SLV ERROR during READ OP
# ----------------------------------------------------------------
# ** Warning: APB SVA: PRDATA is unknown during valid read
#    Time: 8150 ns Started: 8150 ns  Scope: top.vif.a_prdata_valid_on_read File: ../tb/apb_if.sv Line: 60 Expr: ~$isunknown(prdata)
# UVM_INFO ../uvc/env/apb_ram_driver.sv(78) @ 8170: uvm_test_top.env.a.d [DRV] mode:readd, addr:47, wdata:3950128786, rdata:0, slverr:0
# ** Error: APB SVA: Invalid address but PSLVERR not asserted
#    Time: 8190 ns Started: 8190 ns  Scope: top.vif.a_slverr_on_invalid_addr File: ../tb/apb_if.sv Line: 76 Expr: pslverr
# UVM_INFO ../uvc/env/apb_ram_scoreboard.sv(41) @ 8210: uvm_test_top.env.s [SCO] SLV ERROR during READ OP
# ----------------------------------------------------------------
# ** Warning: APB SVA: PRDATA is unknown during valid read
#    Time: 8210 ns Started: 8210 ns  Scope: top.vif.a_prdata_valid_on_read File: ../tb/apb_if.sv Line: 60 Expr: ~$isunknown(prdata)
# UVM_INFO ../uvc/env/apb_ram_driver.sv(78) @ 8230: uvm_test_top.env.a.d [DRV] mode:readd, addr:90, wdata:2207862757, rdata:0, slverr:0
# ** Error: APB SVA: Invalid address but PSLVERR not asserted
#    Time: 8250 ns Started: 8250 ns  Scope: top.vif.a_slverr_on_invalid_addr File: ../tb/apb_if.sv Line: 76 Expr: pslverr
# UVM_INFO ../uvc/env/apb_ram_scoreboard.sv(41) @ 8270: uvm_test_top.env.s [SCO] SLV ERROR during READ OP
# ----------------------------------------------------------------
# ** Warning: APB SVA: PRDATA is unknown during valid read
#    Time: 8270 ns Started: 8270 ns  Scope: top.vif.a_prdata_valid_on_read File: ../tb/apb_if.sv Line: 60 Expr: ~$isunknown(prdata)
# UVM_INFO ../uvc/env/apb_ram_driver.sv(78) @ 8290: uvm_test_top.env.a.d [DRV] mode:readd, addr:53, wdata:3340501546, rdata:0, slverr:0
# ** Error: APB SVA: Invalid address but PSLVERR not asserted
#    Time: 8310 ns Started: 8310 ns  Scope: top.vif.a_slverr_on_invalid_addr File: ../tb/apb_if.sv Line: 76 Expr: pslverr
# UVM_INFO ../uvc/env/apb_ram_scoreboard.sv(41) @ 8330: uvm_test_top.env.s [SCO] SLV ERROR during READ OP
# ----------------------------------------------------------------
# ** Warning: APB SVA: PRDATA is unknown during valid read
#    Time: 8330 ns Started: 8330 ns  Scope: top.vif.a_prdata_valid_on_read File: ../tb/apb_if.sv Line: 60 Expr: ~$isunknown(prdata)
# UVM_INFO ../uvc/env/apb_ram_driver.sv(78) @ 8350: uvm_test_top.env.a.d [DRV] mode:readd, addr:52, wdata:3882506872, rdata:0, slverr:0
# ** Error: APB SVA: Invalid address but PSLVERR not asserted
#    Time: 8370 ns Started: 8370 ns  Scope: top.vif.a_slverr_on_invalid_addr File: ../tb/apb_if.sv Line: 76 Expr: pslverr
# UVM_INFO ../uvc/env/apb_ram_scoreboard.sv(41) @ 8390: uvm_test_top.env.s [SCO] SLV ERROR during READ OP
# ----------------------------------------------------------------
# ** Warning: APB SVA: PRDATA is unknown during valid read
#    Time: 8390 ns Started: 8390 ns  Scope: top.vif.a_prdata_valid_on_read File: ../tb/apb_if.sv Line: 60 Expr: ~$isunknown(prdata)
# UVM_INFO ../uvc/env/apb_ram_driver.sv(78) @ 8410: uvm_test_top.env.a.d [DRV] mode:readd, addr:88, wdata:1130505767, rdata:0, slverr:0
# ** Error: APB SVA: Invalid address but PSLVERR not asserted
