# vsim -c -coverage top "+UVM_TESTNAME=read_err_test" -voptargs="+acc" -l logs/read_err_test.log -do "coverage save -onexit cov/read_err_test.ucdb; run -all; quit -f" 
# Start time: 16:34:33 on Dec 23,2025
# ** Note: (vsim-8009) Loading existing optimized design _opt
# //  Questa Sim-64
# //  Version 10.7c win64 Aug 18 2018
# //
# //  Copyright 1991-2018 Mentor Graphics Corporation
# //  All Rights Reserved.
# //
# //  QuestaSim and its associated documentation contain trade
# //  secrets and commercial or financial information that are the property of
# //  Mentor Graphics Corporation and are privileged, confidential,
# //  and exempt from disclosure under the Freedom of Information Act,
# //  5 U.S.C. Section 552. Furthermore, this information
# //  is prohibited from disclosure under the Trade Secrets Act,
# //  18 U.S.C. Section 1905.
# //
# Loading sv_std.std
# Loading work.apb_if(fast)
# Loading mtiUvm.uvm_pkg
# Loading work.apb_ram_pkg(fast)
# Loading work.top_sv_unit(fast)
# Loading work.top(fast)
# Loading work.apb_if(fast)
# Loading work.apb_ram(fast)
# Loading mtiUvm.questa_uvm_pkg(fast)
# Loading D:/questasim_b_install/uvm-1.1d\win64\uvm_dpi.dll
# coverage save -onexit cov/read_err_test.ucdb
#  run -all
# ----------------------------------------------------------------
# UVM-1.1d
# (C) 2007-2013 Mentor Graphics Corporation
# (C) 2007-2013 Cadence Design Systems, Inc.
# (C) 2006-2013 Synopsys, Inc.
# (C) 2011-2013 Cypress Semiconductor Corp.
# ----------------------------------------------------------------
# 
#   ***********       IMPORTANT RELEASE NOTES         ************
# 
#   You are using a version of the UVM library that has been compiled
#   with `UVM_NO_DEPRECATED undefined.
#   See http://www.eda.org/svdb/view.php?id=3313 for more details.
# 
#   You are using a version of the UVM library that has been compiled
#   with `UVM_OBJECT_MUST_HAVE_CONSTRUCTOR undefined.
#   See http://www.eda.org/svdb/view.php?id=3770 for more details.
# 
#       (Specify +UVM_NO_RELNOTES to turn off this notice)
# 
# UVM_INFO verilog_src/questa_uvm_pkg-1.2/src/questa_uvm_pkg.sv(215) @ 0: reporter [Questa UVM] QUESTA_UVM-1.2.3
# UVM_INFO verilog_src/questa_uvm_pkg-1.2/src/questa_uvm_pkg.sv(216) @ 0: reporter [Questa UVM]  questa_uvm::init(+struct)
# UVM_INFO @ 0: reporter [RNTST] Running test read_err_test...
# UVM_INFO @ 0: reporter [UVMTOP] UVM testbench topology:
# --------------------------------------------------------------
# Name                       Type                    Size  Value
# --------------------------------------------------------------
# uvm_test_top               read_err_test           -     @471 
#   env                      apb_ram_env             -     @478 
#     a                      apb_ram_agent           -     @485 
#       d                    apb_ram_driver          -     @523 
#         rsp_port           uvm_analysis_port       -     @538 
#         seq_item_port      uvm_seq_item_pull_port  -     @530 
#       m                    apb_ram_monitor         -     @516 
#         item_send_port     uvm_analysis_port       -     @664 
#       seqr                 uvm_sequencer           -     @546 
#         rsp_export         uvm_analysis_export     -     @553 
#         seq_item_export    uvm_seq_item_pull_imp   -     @647 
#         arbitration_queue  array                   0     -    
#         lock_queue         array                   0     -    
#         num_last_reqs      integral                32    'd1  
#         num_last_rsps      integral                32    'd1  
#     cov                    apb_ram_coverage        -     @499 
#       analysis_imp         uvm_analysis_imp        -     @506 
#     s                      apb_ram_scoreboard      -     @492 
#       item_recv_imp        uvm_analysis_imp        -     @678 
# --------------------------------------------------------------
# 
# UVM_INFO ../uvc/env/apb_ram_driver.sv(32) @ 0: uvm_test_top.env.a.d [DRV] System Reset : Start of Simulation
# UVM_INFO ../uvc/env/apb_ram_driver.sv(32) @ 10: uvm_test_top.env.a.d [DRV] System Reset : Start of Simulation
# UVM_INFO ../uvc/env/apb_ram_scoreboard.sv(23) @ 10: uvm_test_top.env.s [SCO] SYSTEM RESET DETECTED
# ----------------------------------------------------------------
# UVM_INFO ../uvc/env/apb_ram_scoreboard.sv(23) @ 30: uvm_test_top.env.s [SCO] SYSTEM RESET DETECTED
# ----------------------------------------------------------------
# UVM_INFO ../uvc/env/apb_ram_driver.sv(32) @ 30: uvm_test_top.env.a.d [DRV] System Reset : Start of Simulation
# UVM_INFO ../uvc/env/apb_ram_driver.sv(32) @ 50: uvm_test_top.env.a.d [DRV] System Reset : Start of Simulation
# UVM_INFO ../uvc/env/apb_ram_scoreboard.sv(23) @ 50: uvm_test_top.env.s [SCO] SYSTEM RESET DETECTED
# ----------------------------------------------------------------
# UVM_INFO ../uvc/env/apb_ram_scoreboard.sv(23) @ 70: uvm_test_top.env.s [SCO] SYSTEM RESET DETECTED
# ----------------------------------------------------------------
# UVM_INFO ../uvc/env/apb_ram_driver.sv(32) @ 70: uvm_test_top.env.a.d [DRV] System Reset : Start of Simulation
# UVM_INFO ../uvc/env/apb_ram_scoreboard.sv(23) @ 90: uvm_test_top.env.s [SCO] SYSTEM RESET DETECTED
# ----------------------------------------------------------------
# UVM_INFO ../uvc/env/apb_ram_driver.sv(78) @ 110: uvm_test_top.env.a.d [DRV] mode:readd, addr:41, wdata:3777248807, rdata:0, slverr:0
# UVM_INFO ../uvc/env/apb_ram_scoreboard.sv(41) @ 170: uvm_test_top.env.s [SCO] SLV ERROR during READ OP
# ----------------------------------------------------------------
# UVM_INFO ../uvc/env/apb_ram_driver.sv(78) @ 190: uvm_test_top.env.a.d [DRV] mode:readd, addr:70, wdata:2285552022, rdata:0, slverr:0
# UVM_INFO ../uvc/env/apb_ram_scoreboard.sv(41) @ 230: uvm_test_top.env.s [SCO] SLV ERROR during READ OP
# ----------------------------------------------------------------
# UVM_INFO ../uvc/env/apb_ram_driver.sv(78) @ 250: uvm_test_top.env.a.d [DRV] mode:readd, addr:90, wdata:4281818903, rdata:0, slverr:0
# UVM_INFO ../uvc/env/apb_ram_scoreboard.sv(41) @ 290: uvm_test_top.env.s [SCO] SLV ERROR during READ OP
# ----------------------------------------------------------------
# UVM_INFO ../uvc/env/apb_ram_driver.sv(78) @ 310: uvm_test_top.env.a.d [DRV] mode:readd, addr:84, wdata:1051481594, rdata:0, slverr:0
# UVM_INFO ../uvc/env/apb_ram_scoreboard.sv(41) @ 350: uvm_test_top.env.s [SCO] SLV ERROR during READ OP
# ----------------------------------------------------------------
# UVM_INFO ../uvc/env/apb_ram_driver.sv(78) @ 370: uvm_test_top.env.a.d [DRV] mode:readd, addr:63, wdata:1430793613, rdata:0, slverr:0
# UVM_INFO ../uvc/env/apb_ram_scoreboard.sv(41) @ 410: uvm_test_top.env.s [SCO] SLV ERROR during READ OP
# ----------------------------------------------------------------
# UVM_INFO ../uvc/env/apb_ram_driver.sv(78) @ 430: uvm_test_top.env.a.d [DRV] mode:readd, addr:54, wdata:3171452607, rdata:0, slverr:0
# UVM_INFO ../uvc/env/apb_ram_scoreboard.sv(41) @ 470: uvm_test_top.env.s [SCO] SLV ERROR during READ OP
# ----------------------------------------------------------------
# UVM_INFO ../uvc/env/apb_ram_driver.sv(78) @ 490: uvm_test_top.env.a.d [DRV] mode:readd, addr:64, wdata:2337079852, rdata:0, slverr:0
# UVM_INFO ../uvc/env/apb_ram_scoreboard.sv(41) @ 530: uvm_test_top.env.s [SCO] SLV ERROR during READ OP
# ----------------------------------------------------------------
# UVM_INFO ../uvc/env/apb_ram_driver.sv(78) @ 550: uvm_test_top.env.a.d [DRV] mode:readd, addr:81, wdata:3353941321, rdata:0, slverr:0
# UVM_INFO ../uvc/env/apb_ram_scoreboard.sv(41) @ 590: uvm_test_top.env.s [SCO] SLV ERROR during READ OP
# ----------------------------------------------------------------
# UVM_INFO ../uvc/env/apb_ram_driver.sv(78) @ 610: uvm_test_top.env.a.d [DRV] mode:readd, addr:47, wdata:2729742768, rdata:0, slverr:0
# UVM_INFO ../uvc/env/apb_ram_scoreboard.sv(41) @ 650: uvm_test_top.env.s [SCO] SLV ERROR during READ OP
# ----------------------------------------------------------------
# UVM_INFO ../uvc/env/apb_ram_driver.sv(78) @ 670: uvm_test_top.env.a.d [DRV] mode:readd, addr:66, wdata:2528254870, rdata:0, slverr:0
# UVM_INFO ../uvc/env/apb_ram_scoreboard.sv(41) @ 710: uvm_test_top.env.s [SCO] SLV ERROR during READ OP
# ----------------------------------------------------------------
# UVM_INFO ../uvc/env/apb_ram_driver.sv(78) @ 730: uvm_test_top.env.a.d [DRV] mode:readd, addr:68, wdata:2518359749, rdata:0, slverr:0
# UVM_INFO ../uvc/env/apb_ram_scoreboard.sv(41) @ 770: uvm_test_top.env.s [SCO] SLV ERROR during READ OP
# ----------------------------------------------------------------
# UVM_INFO ../uvc/env/apb_ram_driver.sv(78) @ 790: uvm_test_top.env.a.d [DRV] mode:readd, addr:85, wdata:1888893185, rdata:0, slverr:0
# UVM_INFO ../uvc/env/apb_ram_scoreboard.sv(41) @ 830: uvm_test_top.env.s [SCO] SLV ERROR during READ OP
# ----------------------------------------------------------------
# UVM_INFO ../uvc/env/apb_ram_driver.sv(78) @ 850: uvm_test_top.env.a.d [DRV] mode:readd, addr:68, wdata:2912452960, rdata:0, slverr:0
# UVM_INFO ../uvc/env/apb_ram_scoreboard.sv(41) @ 890: uvm_test_top.env.s [SCO] SLV ERROR during READ OP
# ----------------------------------------------------------------
# UVM_INFO ../uvc/env/apb_ram_driver.sv(78) @ 910: uvm_test_top.env.a.d [DRV] mode:readd, addr:70, wdata:4191012750, rdata:0, slverr:0
# UVM_INFO ../uvc/env/apb_ram_scoreboard.sv(41) @ 950: uvm_test_top.env.s [SCO] SLV ERROR during READ OP
# ----------------------------------------------------------------
# UVM_INFO ../uvc/env/apb_ram_driver.sv(78) @ 970: uvm_test_top.env.a.d [DRV] mode:readd, addr:40, wdata:3892367503, rdata:0, slverr:0
# UVM_INFO ../uvc/env/apb_ram_scoreboard.sv(41) @ 1010: uvm_test_top.env.s [SCO] SLV ERROR during READ OP
# ----------------------------------------------------------------
# UVM_INFO ../uvc/env/apb_ram_driver.sv(78) @ 1030: uvm_test_top.env.a.d [DRV] mode:readd, addr:45, wdata:1981648891, rdata:0, slverr:0
# UVM_INFO ../uvc/env/apb_ram_scoreboard.sv(41) @ 1070: uvm_test_top.env.s [SCO] SLV ERROR during READ OP
# ----------------------------------------------------------------
# UVM_INFO ../uvc/env/apb_ram_driver.sv(78) @ 1090: uvm_test_top.env.a.d [DRV] mode:readd, addr:75, wdata:48946881, rdata:0, slverr:0
# UVM_INFO ../uvc/env/apb_ram_scoreboard.sv(41) @ 1130: uvm_test_top.env.s [SCO] SLV ERROR during READ OP
# ----------------------------------------------------------------
# UVM_INFO ../uvc/env/apb_ram_driver.sv(78) @ 1150: uvm_test_top.env.a.d [DRV] mode:readd, addr:88, wdata:3254385158, rdata:0, slverr:0
# UVM_INFO ../uvc/env/apb_ram_scoreboard.sv(41) @ 1190: uvm_test_top.env.s [SCO] SLV ERROR during READ OP
# ----------------------------------------------------------------
# UVM_INFO ../uvc/env/apb_ram_driver.sv(78) @ 1210: uvm_test_top.env.a.d [DRV] mode:readd, addr:70, wdata:3524547497, rdata:0, slverr:0
# UVM_INFO ../uvc/env/apb_ram_scoreboard.sv(41) @ 1250: uvm_test_top.env.s [SCO] SLV ERROR during READ OP
# ----------------------------------------------------------------
# UVM_INFO ../uvc/env/apb_ram_driver.sv(78) @ 1270: uvm_test_top.env.a.d [DRV] mode:readd, addr:92, wdata:3483282630, rdata:0, slverr:0
# UVM_INFO ../uvc/env/apb_ram_scoreboard.sv(41) @ 1310: uvm_test_top.env.s [SCO] SLV ERROR during READ OP
# ----------------------------------------------------------------
# UVM_INFO ../uvc/env/apb_ram_driver.sv(78) @ 1330: uvm_test_top.env.a.d [DRV] mode:readd, addr:94, wdata:2414337454, rdata:0, slverr:0
# UVM_INFO ../uvc/env/apb_ram_scoreboard.sv(41) @ 1370: uvm_test_top.env.s [SCO] SLV ERROR during READ OP
# ----------------------------------------------------------------
# UVM_INFO ../uvc/env/apb_ram_driver.sv(78) @ 1390: uvm_test_top.env.a.d [DRV] mode:readd, addr:73, wdata:114161314, rdata:0, slverr:0
# UVM_INFO ../uvc/env/apb_ram_scoreboard.sv(41) @ 1430: uvm_test_top.env.s [SCO] SLV ERROR during READ OP
# ----------------------------------------------------------------
# UVM_INFO ../uvc/env/apb_ram_driver.sv(78) @ 1450: uvm_test_top.env.a.d [DRV] mode:readd, addr:32, wdata:2384080836, rdata:0, slverr:0
# UVM_INFO ../uvc/env/apb_ram_scoreboard.sv(41) @ 1490: uvm_test_top.env.s [SCO] SLV ERROR during READ OP
# ----------------------------------------------------------------
# UVM_INFO ../uvc/env/apb_ram_driver.sv(78) @ 1510: uvm_test_top.env.a.d [DRV] mode:readd, addr:35, wdata:616727898, rdata:0, slverr:0
# UVM_INFO ../uvc/env/apb_ram_scoreboard.sv(41) @ 1550: uvm_test_top.env.s [SCO] SLV ERROR during READ OP
# ----------------------------------------------------------------
# UVM_INFO ../uvc/env/apb_ram_driver.sv(78) @ 1570: uvm_test_top.env.a.d [DRV] mode:readd, addr:71, wdata:4230033719, rdata:0, slverr:0
# UVM_INFO ../uvc/env/apb_ram_scoreboard.sv(41) @ 1610: uvm_test_top.env.s [SCO] SLV ERROR during READ OP
# ----------------------------------------------------------------
# UVM_INFO ../uvc/env/apb_ram_driver.sv(78) @ 1630: uvm_test_top.env.a.d [DRV] mode:readd, addr:56, wdata:3617292467, rdata:0, slverr:0
# UVM_INFO ../uvc/env/apb_ram_scoreboard.sv(41) @ 1670: uvm_test_top.env.s [SCO] SLV ERROR during READ OP
# ----------------------------------------------------------------
# UVM_INFO ../uvc/env/apb_ram_driver.sv(78) @ 1690: uvm_test_top.env.a.d [DRV] mode:readd, addr:84, wdata:938073799, rdata:0, slverr:0
# UVM_INFO ../uvc/env/apb_ram_scoreboard.sv(41) @ 1730: uvm_test_top.env.s [SCO] SLV ERROR during READ OP
# ----------------------------------------------------------------
# UVM_INFO ../uvc/env/apb_ram_driver.sv(78) @ 1750: uvm_test_top.env.a.d [DRV] mode:readd, addr:51, wdata:3644635849, rdata:0, slverr:0
# UVM_INFO ../uvc/env/apb_ram_scoreboard.sv(41) @ 1790: uvm_test_top.env.s [SCO] SLV ERROR during READ OP
# ----------------------------------------------------------------
# UVM_INFO ../uvc/env/apb_ram_driver.sv(78) @ 1810: uvm_test_top.env.a.d [DRV] mode:readd, addr:59, wdata:2295673994, rdata:0, slverr:0
# UVM_INFO ../uvc/env/apb_ram_scoreboard.sv(41) @ 1850: uvm_test_top.env.s [SCO] SLV ERROR during READ OP
# ----------------------------------------------------------------
# UVM_INFO ../uvc/env/apb_ram_driver.sv(78) @ 1870: uvm_test_top.env.a.d [DRV] mode:readd, addr:78, wdata:4236171247, rdata:0, slverr:0
# UVM_INFO ../uvc/env/apb_ram_scoreboard.sv(41) @ 1910: uvm_test_top.env.s [SCO] SLV ERROR during READ OP
# ----------------------------------------------------------------
# UVM_INFO ../uvc/env/apb_ram_driver.sv(78) @ 1930: uvm_test_top.env.a.d [DRV] mode:readd, addr:62, wdata:812920989, rdata:0, slverr:0
# UVM_INFO ../uvc/env/apb_ram_scoreboard.sv(41) @ 1970: uvm_test_top.env.s [SCO] SLV ERROR during READ OP
# ----------------------------------------------------------------
# UVM_INFO ../uvc/env/apb_ram_driver.sv(78) @ 1990: uvm_test_top.env.a.d [DRV] mode:readd, addr:82, wdata:842572445, rdata:0, slverr:0
# UVM_INFO ../uvc/env/apb_ram_scoreboard.sv(41) @ 2030: uvm_test_top.env.s [SCO] SLV ERROR during READ OP
# ----------------------------------------------------------------
# UVM_INFO ../uvc/env/apb_ram_driver.sv(78) @ 2050: uvm_test_top.env.a.d [DRV] mode:readd, addr:76, wdata:1408008632, rdata:0, slverr:0
# UVM_INFO ../uvc/env/apb_ram_scoreboard.sv(41) @ 2090: uvm_test_top.env.s [SCO] SLV ERROR during READ OP
# ----------------------------------------------------------------
# UVM_INFO ../uvc/env/apb_ram_driver.sv(78) @ 2110: uvm_test_top.env.a.d [DRV] mode:readd, addr:85, wdata:1728061235, rdata:0, slverr:0
# UVM_INFO ../uvc/env/apb_ram_scoreboard.sv(41) @ 2150: uvm_test_top.env.s [SCO] SLV ERROR during READ OP
# ----------------------------------------------------------------
# UVM_INFO ../uvc/env/apb_ram_driver.sv(78) @ 2170: uvm_test_top.env.a.d [DRV] mode:readd, addr:45, wdata:2370165681, rdata:0, slverr:0
# UVM_INFO ../uvc/env/apb_ram_scoreboard.sv(41) @ 2210: uvm_test_top.env.s [SCO] SLV ERROR during READ OP
# ----------------------------------------------------------------
# UVM_INFO ../uvc/env/apb_ram_driver.sv(78) @ 2230: uvm_test_top.env.a.d [DRV] mode:readd, addr:66, wdata:3534544320, rdata:0, slverr:0
# UVM_INFO ../uvc/env/apb_ram_scoreboard.sv(41) @ 2270: uvm_test_top.env.s [SCO] SLV ERROR during READ OP
# ----------------------------------------------------------------
# UVM_INFO ../uvc/env/apb_ram_driver.sv(78) @ 2290: uvm_test_top.env.a.d [DRV] mode:readd, addr:91, wdata:2442776198, rdata:0, slverr:0
# UVM_INFO ../uvc/env/apb_ram_scoreboard.sv(41) @ 2330: uvm_test_top.env.s [SCO] SLV ERROR during READ OP
# ----------------------------------------------------------------
# UVM_INFO ../uvc/env/apb_ram_driver.sv(78) @ 2350: uvm_test_top.env.a.d [DRV] mode:readd, addr:50, wdata:2614382870, rdata:0, slverr:0
# UVM_INFO ../uvc/env/apb_ram_scoreboard.sv(41) @ 2390: uvm_test_top.env.s [SCO] SLV ERROR during READ OP
# ----------------------------------------------------------------
# UVM_INFO ../uvc/env/apb_ram_driver.sv(78) @ 2410: uvm_test_top.env.a.d [DRV] mode:readd, addr:92, wdata:1814544769, rdata:0, slverr:0
# UVM_INFO ../uvc/env/apb_ram_scoreboard.sv(41) @ 2450: uvm_test_top.env.s [SCO] SLV ERROR during READ OP
# ----------------------------------------------------------------
# UVM_INFO ../uvc/env/apb_ram_driver.sv(78) @ 2470: uvm_test_top.env.a.d [DRV] mode:readd, addr:80, wdata:2646141795, rdata:0, slverr:0
# UVM_INFO ../uvc/env/apb_ram_scoreboard.sv(41) @ 2510: uvm_test_top.env.s [SCO] SLV ERROR during READ OP
# ----------------------------------------------------------------
# UVM_INFO ../uvc/env/apb_ram_driver.sv(78) @ 2530: uvm_test_top.env.a.d [DRV] mode:readd, addr:46, wdata:1225673380, rdata:0, slverr:0
# UVM_INFO ../uvc/env/apb_ram_scoreboard.sv(41) @ 2570: uvm_test_top.env.s [SCO] SLV ERROR during READ OP
# ----------------------------------------------------------------
# UVM_INFO ../uvc/env/apb_ram_driver.sv(78) @ 2590: uvm_test_top.env.a.d [DRV] mode:readd, addr:89, wdata:1967671799, rdata:0, slverr:0
# UVM_INFO ../uvc/env/apb_ram_scoreboard.sv(41) @ 2630: uvm_test_top.env.s [SCO] SLV ERROR during READ OP
# ----------------------------------------------------------------
# UVM_INFO ../uvc/env/apb_ram_driver.sv(78) @ 2650: uvm_test_top.env.a.d [DRV] mode:readd, addr:92, wdata:2412323114, rdata:0, slverr:0
# UVM_INFO ../uvc/env/apb_ram_scoreboard.sv(41) @ 2690: uvm_test_top.env.s [SCO] SLV ERROR during READ OP
# ----------------------------------------------------------------
# UVM_INFO ../uvc/env/apb_ram_driver.sv(78) @ 2710: uvm_test_top.env.a.d [DRV] mode:readd, addr:78, wdata:1496865130, rdata:0, slverr:0
# UVM_INFO ../uvc/env/apb_ram_scoreboard.sv(41) @ 2750: uvm_test_top.env.s [SCO] SLV ERROR during READ OP
# ----------------------------------------------------------------
# UVM_INFO ../uvc/env/apb_ram_driver.sv(78) @ 2770: uvm_test_top.env.a.d [DRV] mode:readd, addr:38, wdata:3007791890, rdata:0, slverr:0
# UVM_INFO ../uvc/env/apb_ram_scoreboard.sv(41) @ 2810: uvm_test_top.env.s [SCO] SLV ERROR during READ OP
# ----------------------------------------------------------------
# UVM_INFO ../uvc/env/apb_ram_driver.sv(78) @ 2830: uvm_test_top.env.a.d [DRV] mode:readd, addr:47, wdata:1654212079, rdata:0, slverr:0
# UVM_INFO ../uvc/env/apb_ram_scoreboard.sv(41) @ 2870: uvm_test_top.env.s [SCO] SLV ERROR during READ OP
# ----------------------------------------------------------------
# UVM_INFO ../uvc/env/apb_ram_driver.sv(78) @ 2890: uvm_test_top.env.a.d [DRV] mode:readd, addr:68, wdata:3373696266, rdata:0, slverr:0
# UVM_INFO ../uvc/env/apb_ram_scoreboard.sv(41) @ 2930: uvm_test_top.env.s [SCO] SLV ERROR during READ OP
# ----------------------------------------------------------------
# UVM_INFO ../uvc/env/apb_ram_driver.sv(78) @ 2950: uvm_test_top.env.a.d [DRV] mode:readd, addr:79, wdata:302863272, rdata:0, slverr:0
# UVM_INFO ../uvc/env/apb_ram_scoreboard.sv(41) @ 2990: uvm_test_top.env.s [SCO] SLV ERROR during READ OP
# ----------------------------------------------------------------
# UVM_INFO ../uvc/env/apb_ram_driver.sv(78) @ 3010: uvm_test_top.env.a.d [DRV] mode:readd, addr:41, wdata:2912410914, rdata:0, slverr:0
# UVM_INFO ../uvc/env/apb_ram_scoreboard.sv(41) @ 3050: uvm_test_top.env.s [SCO] SLV ERROR during READ OP
# ----------------------------------------------------------------
# UVM_INFO ../uvc/env/apb_ram_driver.sv(78) @ 3070: uvm_test_top.env.a.d [DRV] mode:readd, addr:46, wdata:1966490993, rdata:0, slverr:0
# UVM_INFO ../uvc/env/apb_ram_scoreboard.sv(41) @ 3110: uvm_test_top.env.s [SCO] SLV ERROR during READ OP
# ----------------------------------------------------------------
# UVM_INFO ../uvc/env/apb_ram_driver.sv(78) @ 3130: uvm_test_top.env.a.d [DRV] mode:readd, addr:61, wdata:709999995, rdata:0, slverr:0
# UVM_INFO ../uvc/env/apb_ram_scoreboard.sv(41) @ 3170: uvm_test_top.env.s [SCO] SLV ERROR during READ OP
# ----------------------------------------------------------------
# UVM_INFO ../uvc/env/apb_ram_driver.sv(78) @ 3190: uvm_test_top.env.a.d [DRV] mode:readd, addr:53, wdata:1381038493, rdata:0, slverr:0
# UVM_INFO ../uvc/env/apb_ram_scoreboard.sv(41) @ 3230: uvm_test_top.env.s [SCO] SLV ERROR during READ OP
# ----------------------------------------------------------------
# UVM_INFO ../uvc/env/apb_ram_driver.sv(78) @ 3250: uvm_test_top.env.a.d [DRV] mode:readd, addr:86, wdata:4144100939, rdata:0, slverr:0
# UVM_INFO ../uvc/env/apb_ram_scoreboard.sv(41) @ 3290: uvm_test_top.env.s [SCO] SLV ERROR during READ OP
# ----------------------------------------------------------------
# UVM_INFO ../uvc/env/apb_ram_driver.sv(78) @ 3310: uvm_test_top.env.a.d [DRV] mode:readd, addr:79, wdata:892512377, rdata:0, slverr:0
# UVM_INFO ../uvc/env/apb_ram_scoreboard.sv(41) @ 3350: uvm_test_top.env.s [SCO] SLV ERROR during READ OP
# ----------------------------------------------------------------
# UVM_INFO ../uvc/env/apb_ram_driver.sv(78) @ 3370: uvm_test_top.env.a.d [DRV] mode:readd, addr:74, wdata:3578429675, rdata:0, slverr:0
# UVM_INFO ../uvc/env/apb_ram_scoreboard.sv(41) @ 3410: uvm_test_top.env.s [SCO] SLV ERROR during READ OP
# ----------------------------------------------------------------
# UVM_INFO ../uvc/env/apb_ram_driver.sv(78) @ 3430: uvm_test_top.env.a.d [DRV] mode:readd, addr:97, wdata:2582529987, rdata:0, slverr:0
# UVM_INFO ../uvc/env/apb_ram_scoreboard.sv(41) @ 3470: uvm_test_top.env.s [SCO] SLV ERROR during READ OP
# ----------------------------------------------------------------
# UVM_INFO ../uvc/env/apb_ram_driver.sv(78) @ 3490: uvm_test_top.env.a.d [DRV] mode:readd, addr:63, wdata:3985947039, rdata:0, slverr:0
# UVM_INFO ../uvc/env/apb_ram_scoreboard.sv(41) @ 3530: uvm_test_top.env.s [SCO] SLV ERROR during READ OP
# ----------------------------------------------------------------
# UVM_INFO ../uvc/env/apb_ram_driver.sv(78) @ 3550: uvm_test_top.env.a.d [DRV] mode:readd, addr:93, wdata:2766433457, rdata:0, slverr:0
# UVM_INFO ../uvc/env/apb_ram_scoreboard.sv(41) @ 3590: uvm_test_top.env.s [SCO] SLV ERROR during READ OP
# ----------------------------------------------------------------
# UVM_INFO ../uvc/env/apb_ram_driver.sv(78) @ 3610: uvm_test_top.env.a.d [DRV] mode:readd, addr:73, wdata:4007790511, rdata:0, slverr:0
# UVM_INFO ../uvc/env/apb_ram_scoreboard.sv(41) @ 3650: uvm_test_top.env.s [SCO] SLV ERROR during READ OP
# ----------------------------------------------------------------
# UVM_INFO ../uvc/env/apb_ram_driver.sv(78) @ 3670: uvm_test_top.env.a.d [DRV] mode:readd, addr:53, wdata:736522590, rdata:0, slverr:0
# UVM_INFO ../uvc/env/apb_ram_scoreboard.sv(41) @ 3710: uvm_test_top.env.s [SCO] SLV ERROR during READ OP
# ----------------------------------------------------------------
# UVM_INFO ../uvc/env/apb_ram_driver.sv(78) @ 3730: uvm_test_top.env.a.d [DRV] mode:readd, addr:77, wdata:4022774536, rdata:0, slverr:0
# UVM_INFO ../uvc/env/apb_ram_scoreboard.sv(41) @ 3770: uvm_test_top.env.s [SCO] SLV ERROR during READ OP
# ----------------------------------------------------------------
# UVM_INFO ../uvc/env/apb_ram_driver.sv(78) @ 3790: uvm_test_top.env.a.d [DRV] mode:readd, addr:38, wdata:3012510934, rdata:0, slverr:0
# UVM_INFO ../uvc/env/apb_ram_scoreboard.sv(41) @ 3830: uvm_test_top.env.s [SCO] SLV ERROR during READ OP
# ----------------------------------------------------------------
# UVM_INFO ../uvc/env/apb_ram_driver.sv(78) @ 3850: uvm_test_top.env.a.d [DRV] mode:readd, addr:77, wdata:3611130099, rdata:0, slverr:0
# UVM_INFO ../uvc/env/apb_ram_scoreboard.sv(41) @ 3890: uvm_test_top.env.s [SCO] SLV ERROR during READ OP
# ----------------------------------------------------------------
# UVM_INFO ../uvc/env/apb_ram_driver.sv(78) @ 3910: uvm_test_top.env.a.d [DRV] mode:readd, addr:36, wdata:573725882, rdata:0, slverr:0
# UVM_INFO ../uvc/env/apb_ram_scoreboard.sv(41) @ 3950: uvm_test_top.env.s [SCO] SLV ERROR during READ OP
# ----------------------------------------------------------------
# UVM_INFO ../uvc/env/apb_ram_driver.sv(78) @ 3970: uvm_test_top.env.a.d [DRV] mode:readd, addr:73, wdata:2726042824, rdata:0, slverr:0
# UVM_INFO ../uvc/env/apb_ram_scoreboard.sv(41) @ 4010: uvm_test_top.env.s [SCO] SLV ERROR during READ OP
# ----------------------------------------------------------------
# UVM_INFO ../uvc/env/apb_ram_driver.sv(78) @ 4030: uvm_test_top.env.a.d [DRV] mode:readd, addr:92, wdata:1096171635, rdata:0, slverr:0
# UVM_INFO ../uvc/env/apb_ram_scoreboard.sv(41) @ 4070: uvm_test_top.env.s [SCO] SLV ERROR during READ OP
# ----------------------------------------------------------------
# UVM_INFO ../uvc/env/apb_ram_driver.sv(78) @ 4090: uvm_test_top.env.a.d [DRV] mode:readd, addr:94, wdata:4116889447, rdata:0, slverr:0
# UVM_INFO ../uvc/env/apb_ram_scoreboard.sv(41) @ 4130: uvm_test_top.env.s [SCO] SLV ERROR during READ OP
# ----------------------------------------------------------------
# UVM_INFO ../uvc/env/apb_ram_driver.sv(78) @ 4150: uvm_test_top.env.a.d [DRV] mode:readd, addr:94, wdata:1609299050, rdata:0, slverr:0
# UVM_INFO ../uvc/env/apb_ram_scoreboard.sv(41) @ 4190: uvm_test_top.env.s [SCO] SLV ERROR during READ OP
# ----------------------------------------------------------------
# UVM_INFO ../uvc/env/apb_ram_driver.sv(78) @ 4210: uvm_test_top.env.a.d [DRV] mode:readd, addr:82, wdata:1721030693, rdata:0, slverr:0
# UVM_INFO ../uvc/env/apb_ram_scoreboard.sv(41) @ 4250: uvm_test_top.env.s [SCO] SLV ERROR during READ OP
# ----------------------------------------------------------------
# UVM_INFO ../uvc/env/apb_ram_driver.sv(78) @ 4270: uvm_test_top.env.a.d [DRV] mode:readd, addr:92, wdata:1907405854, rdata:0, slverr:0
# UVM_INFO ../uvc/env/apb_ram_scoreboard.sv(41) @ 4310: uvm_test_top.env.s [SCO] SLV ERROR during READ OP
# ----------------------------------------------------------------
# UVM_INFO ../uvc/env/apb_ram_driver.sv(78) @ 4330: uvm_test_top.env.a.d [DRV] mode:readd, addr:46, wdata:3615637079, rdata:0, slverr:0
# UVM_INFO ../uvc/env/apb_ram_scoreboard.sv(41) @ 4370: uvm_test_top.env.s [SCO] SLV ERROR during READ OP
# ----------------------------------------------------------------
# UVM_INFO ../uvc/env/apb_ram_driver.sv(78) @ 4390: uvm_test_top.env.a.d [DRV] mode:readd, addr:36, wdata:2567223576, rdata:0, slverr:0
# UVM_INFO ../uvc/env/apb_ram_scoreboard.sv(41) @ 4430: uvm_test_top.env.s [SCO] SLV ERROR during READ OP
# ----------------------------------------------------------------
# UVM_INFO ../uvc/env/apb_ram_driver.sv(78) @ 4450: uvm_test_top.env.a.d [DRV] mode:readd, addr:39, wdata:344372223, rdata:0, slverr:0
# UVM_INFO ../uvc/env/apb_ram_scoreboard.sv(41) @ 4490: uvm_test_top.env.s [SCO] SLV ERROR during READ OP
# ----------------------------------------------------------------
# UVM_INFO ../uvc/env/apb_ram_driver.sv(78) @ 4510: uvm_test_top.env.a.d [DRV] mode:readd, addr:47, wdata:847442581, rdata:0, slverr:0
# UVM_INFO ../uvc/env/apb_ram_scoreboard.sv(41) @ 4550: uvm_test_top.env.s [SCO] SLV ERROR during READ OP
# ----------------------------------------------------------------
# UVM_INFO ../uvc/env/apb_ram_driver.sv(78) @ 4570: uvm_test_top.env.a.d [DRV] mode:readd, addr:39, wdata:2856583018, rdata:0, slverr:0
# UVM_INFO ../uvc/env/apb_ram_scoreboard.sv(41) @ 4610: uvm_test_top.env.s [SCO] SLV ERROR during READ OP
# ----------------------------------------------------------------
# UVM_INFO ../uvc/env/apb_ram_driver.sv(78) @ 4630: uvm_test_top.env.a.d [DRV] mode:readd, addr:32, wdata:1640786469, rdata:0, slverr:0
# UVM_INFO ../uvc/env/apb_ram_scoreboard.sv(41) @ 4670: uvm_test_top.env.s [SCO] SLV ERROR during READ OP
# ----------------------------------------------------------------
# UVM_INFO ../uvc/env/apb_ram_driver.sv(78) @ 4690: uvm_test_top.env.a.d [DRV] mode:readd, addr:72, wdata:2759802914, rdata:0, slverr:0
# UVM_INFO ../uvc/env/apb_ram_scoreboard.sv(41) @ 4730: uvm_test_top.env.s [SCO] SLV ERROR during READ OP
# ----------------------------------------------------------------
# UVM_INFO ../uvc/env/apb_ram_driver.sv(78) @ 4750: uvm_test_top.env.a.d [DRV] mode:readd, addr:42, wdata:173840900, rdata:0, slverr:0
# UVM_INFO ../uvc/env/apb_ram_scoreboard.sv(41) @ 4790: uvm_test_top.env.s [SCO] SLV ERROR during READ OP
# ----------------------------------------------------------------
# UVM_INFO ../uvc/env/apb_ram_driver.sv(78) @ 4810: uvm_test_top.env.a.d [DRV] mode:readd, addr:40, wdata:3302395917, rdata:0, slverr:0
# UVM_INFO ../uvc/env/apb_ram_scoreboard.sv(41) @ 4850: uvm_test_top.env.s [SCO] SLV ERROR during READ OP
# ----------------------------------------------------------------
# UVM_INFO ../uvc/env/apb_ram_driver.sv(78) @ 4870: uvm_test_top.env.a.d [DRV] mode:readd, addr:96, wdata:3074316253, rdata:0, slverr:0
# UVM_INFO ../uvc/env/apb_ram_scoreboard.sv(41) @ 4910: uvm_test_top.env.s [SCO] SLV ERROR during READ OP
# ----------------------------------------------------------------
# UVM_INFO ../uvc/env/apb_ram_driver.sv(78) @ 4930: uvm_test_top.env.a.d [DRV] mode:readd, addr:42, wdata:3755934142, rdata:0, slverr:0
# UVM_INFO ../uvc/env/apb_ram_scoreboard.sv(41) @ 4970: uvm_test_top.env.s [SCO] SLV ERROR during READ OP
# ----------------------------------------------------------------
# UVM_INFO ../uvc/env/apb_ram_driver.sv(78) @ 4990: uvm_test_top.env.a.d [DRV] mode:readd, addr:73, wdata:2009335954, rdata:0, slverr:0
# UVM_INFO ../uvc/env/apb_ram_scoreboard.sv(41) @ 5030: uvm_test_top.env.s [SCO] SLV ERROR during READ OP
# ----------------------------------------------------------------
# UVM_INFO ../uvc/env/apb_ram_driver.sv(78) @ 5050: uvm_test_top.env.a.d [DRV] mode:readd, addr:87, wdata:3906754574, rdata:0, slverr:0
# UVM_INFO ../uvc/env/apb_ram_scoreboard.sv(41) @ 5090: uvm_test_top.env.s [SCO] SLV ERROR during READ OP
# ----------------------------------------------------------------
# UVM_INFO ../uvc/env/apb_ram_driver.sv(78) @ 5110: uvm_test_top.env.a.d [DRV] mode:readd, addr:58, wdata:1093583199, rdata:0, slverr:0
# UVM_INFO ../uvc/env/apb_ram_scoreboard.sv(41) @ 5150: uvm_test_top.env.s [SCO] SLV ERROR during READ OP
# ----------------------------------------------------------------
# UVM_INFO ../uvc/env/apb_ram_driver.sv(78) @ 5170: uvm_test_top.env.a.d [DRV] mode:readd, addr:40, wdata:2695237669, rdata:0, slverr:0
# UVM_INFO ../uvc/env/apb_ram_scoreboard.sv(41) @ 5210: uvm_test_top.env.s [SCO] SLV ERROR during READ OP
# ----------------------------------------------------------------
# UVM_INFO ../uvc/env/apb_ram_driver.sv(78) @ 5230: uvm_test_top.env.a.d [DRV] mode:readd, addr:91, wdata:1340967957, rdata:0, slverr:0
# UVM_INFO ../uvc/env/apb_ram_scoreboard.sv(41) @ 5270: uvm_test_top.env.s [SCO] SLV ERROR during READ OP
# ----------------------------------------------------------------
# UVM_INFO ../uvc/env/apb_ram_driver.sv(78) @ 5290: uvm_test_top.env.a.d [DRV] mode:readd, addr:44, wdata:3922692892, rdata:0, slverr:0
# UVM_INFO ../uvc/env/apb_ram_scoreboard.sv(41) @ 5330: uvm_test_top.env.s [SCO] SLV ERROR during READ OP
# ----------------------------------------------------------------
# UVM_INFO ../uvc/env/apb_ram_driver.sv(78) @ 5350: uvm_test_top.env.a.d [DRV] mode:readd, addr:72, wdata:1326557156, rdata:0, slverr:0
# UVM_INFO ../uvc/env/apb_ram_scoreboard.sv(41) @ 5390: uvm_test_top.env.s [SCO] SLV ERROR during READ OP
# ----------------------------------------------------------------
# UVM_INFO ../uvc/env/apb_ram_driver.sv(78) @ 5410: uvm_test_top.env.a.d [DRV] mode:readd, addr:87, wdata:4110560064, rdata:0, slverr:0
# UVM_INFO ../uvc/env/apb_ram_scoreboard.sv(41) @ 5450: uvm_test_top.env.s [SCO] SLV ERROR during READ OP
# ----------------------------------------------------------------
# UVM_INFO ../uvc/env/apb_ram_driver.sv(78) @ 5470: uvm_test_top.env.a.d [DRV] mode:readd, addr:37, wdata:1689707734, rdata:0, slverr:0
# UVM_INFO ../uvc/env/apb_ram_scoreboard.sv(41) @ 5510: uvm_test_top.env.s [SCO] SLV ERROR during READ OP
# ----------------------------------------------------------------
# UVM_INFO ../uvc/env/apb_ram_driver.sv(78) @ 5530: uvm_test_top.env.a.d [DRV] mode:readd, addr:48, wdata:3745644506, rdata:0, slverr:0
# UVM_INFO ../uvc/env/apb_ram_scoreboard.sv(41) @ 5570: uvm_test_top.env.s [SCO] SLV ERROR during READ OP
# ----------------------------------------------------------------
# UVM_INFO ../uvc/env/apb_ram_driver.sv(78) @ 5590: uvm_test_top.env.a.d [DRV] mode:readd, addr:99, wdata:1687574432, rdata:0, slverr:0
# UVM_INFO ../uvc/env/apb_ram_scoreboard.sv(41) @ 5630: uvm_test_top.env.s [SCO] SLV ERROR during READ OP
# ----------------------------------------------------------------
# UVM_INFO ../uvc/env/apb_ram_driver.sv(78) @ 5650: uvm_test_top.env.a.d [DRV] mode:readd, addr:67, wdata:2512043228, rdata:0, slverr:0
# UVM_INFO ../uvc/env/apb_ram_scoreboard.sv(41) @ 5690: uvm_test_top.env.s [SCO] SLV ERROR during READ OP
# ----------------------------------------------------------------
# UVM_INFO ../uvc/env/apb_ram_driver.sv(78) @ 5710: uvm_test_top.env.a.d [DRV] mode:readd, addr:65, wdata:2421750047, rdata:0, slverr:0
# UVM_INFO ../uvc/env/apb_ram_scoreboard.sv(41) @ 5750: uvm_test_top.env.s [SCO] SLV ERROR during READ OP
# ----------------------------------------------------------------
# UVM_INFO ../uvc/env/apb_ram_driver.sv(78) @ 5770: uvm_test_top.env.a.d [DRV] mode:readd, addr:54, wdata:3543838675, rdata:0, slverr:0
# UVM_INFO ../uvc/env/apb_ram_scoreboard.sv(41) @ 5810: uvm_test_top.env.s [SCO] SLV ERROR during READ OP
# ----------------------------------------------------------------
# UVM_INFO ../uvc/env/apb_ram_driver.sv(78) @ 5830: uvm_test_top.env.a.d [DRV] mode:readd, addr:39, wdata:2455390672, rdata:0, slverr:0
# UVM_INFO ../uvc/env/apb_ram_scoreboard.sv(41) @ 5870: uvm_test_top.env.s [SCO] SLV ERROR during READ OP
# ----------------------------------------------------------------
# UVM_INFO ../uvc/env/apb_ram_driver.sv(78) @ 5890: uvm_test_top.env.a.d [DRV] mode:readd, addr:57, wdata:4275940845, rdata:0, slverr:0
# UVM_INFO ../uvc/env/apb_ram_scoreboard.sv(41) @ 5930: uvm_test_top.env.s [SCO] SLV ERROR during READ OP
# ----------------------------------------------------------------
# UVM_INFO ../uvc/env/apb_ram_driver.sv(78) @ 5950: uvm_test_top.env.a.d [DRV] mode:readd, addr:60, wdata:326076968, rdata:0, slverr:0
# UVM_INFO ../uvc/env/apb_ram_scoreboard.sv(41) @ 5990: uvm_test_top.env.s [SCO] SLV ERROR during READ OP
# ----------------------------------------------------------------
# UVM_INFO ../uvc/env/apb_ram_driver.sv(78) @ 6010: uvm_test_top.env.a.d [DRV] mode:readd, addr:60, wdata:2230595295, rdata:0, slverr:0
# UVM_INFO ../uvc/env/apb_ram_scoreboard.sv(41) @ 6050: uvm_test_top.env.s [SCO] SLV ERROR during READ OP
# ----------------------------------------------------------------
# UVM_INFO ../uvc/env/apb_ram_driver.sv(78) @ 6070: uvm_test_top.env.a.d [DRV] mode:readd, addr:34, wdata:2725359598, rdata:0, slverr:0
# UVM_INFO ../uvc/env/apb_ram_scoreboard.sv(41) @ 6110: uvm_test_top.env.s [SCO] SLV ERROR during READ OP
# ----------------------------------------------------------------
# UVM_INFO ../uvc/env/apb_ram_driver.sv(78) @ 6130: uvm_test_top.env.a.d [DRV] mode:readd, addr:98, wdata:2308568196, rdata:0, slverr:0
# UVM_INFO ../uvc/env/apb_ram_scoreboard.sv(41) @ 6170: uvm_test_top.env.s [SCO] SLV ERROR during READ OP
# ----------------------------------------------------------------
# UVM_INFO ../uvc/env/apb_ram_driver.sv(78) @ 6190: uvm_test_top.env.a.d [DRV] mode:readd, addr:86, wdata:651093078, rdata:0, slverr:0
# UVM_INFO ../uvc/env/apb_ram_scoreboard.sv(41) @ 6230: uvm_test_top.env.s [SCO] SLV ERROR during READ OP
# ----------------------------------------------------------------
# UVM_INFO ../uvc/env/apb_ram_driver.sv(78) @ 6250: uvm_test_top.env.a.d [DRV] mode:readd, addr:89, wdata:701912914, rdata:0, slverr:0
# UVM_INFO ../uvc/env/apb_ram_scoreboard.sv(41) @ 6290: uvm_test_top.env.s [SCO] SLV ERROR during READ OP
# ----------------------------------------------------------------
# UVM_INFO ../uvc/env/apb_ram_driver.sv(78) @ 6310: uvm_test_top.env.a.d [DRV] mode:readd, addr:42, wdata:1258764651, rdata:0, slverr:0
# UVM_INFO ../uvc/env/apb_ram_scoreboard.sv(41) @ 6350: uvm_test_top.env.s [SCO] SLV ERROR during READ OP
# ----------------------------------------------------------------
# UVM_INFO ../uvc/env/apb_ram_driver.sv(78) @ 6370: uvm_test_top.env.a.d [DRV] mode:readd, addr:67, wdata:2675317075, rdata:0, slverr:0
# UVM_INFO ../uvc/env/apb_ram_scoreboard.sv(41) @ 6410: uvm_test_top.env.s [SCO] SLV ERROR during READ OP
# ----------------------------------------------------------------
# UVM_INFO ../uvc/env/apb_ram_driver.sv(78) @ 6430: uvm_test_top.env.a.d [DRV] mode:readd, addr:42, wdata:1930987503, rdata:0, slverr:0
# UVM_INFO ../uvc/env/apb_ram_scoreboard.sv(41) @ 6470: uvm_test_top.env.s [SCO] SLV ERROR during READ OP
# ----------------------------------------------------------------
# UVM_INFO ../uvc/env/apb_ram_driver.sv(78) @ 6490: uvm_test_top.env.a.d [DRV] mode:readd, addr:93, wdata:2200227099, rdata:0, slverr:0
# UVM_INFO ../uvc/env/apb_ram_scoreboard.sv(41) @ 6530: uvm_test_top.env.s [SCO] SLV ERROR during READ OP
# ----------------------------------------------------------------
# UVM_INFO ../uvc/env/apb_ram_driver.sv(78) @ 6550: uvm_test_top.env.a.d [DRV] mode:readd, addr:48, wdata:545298632, rdata:0, slverr:0
# UVM_INFO ../uvc/env/apb_ram_scoreboard.sv(41) @ 6590: uvm_test_top.env.s [SCO] SLV ERROR during READ OP
# ----------------------------------------------------------------
# UVM_INFO ../uvc/env/apb_ram_driver.sv(78) @ 6610: uvm_test_top.env.a.d [DRV] mode:readd, addr:47, wdata:3286523773, rdata:0, slverr:0
# UVM_INFO ../uvc/env/apb_ram_scoreboard.sv(41) @ 6650: uvm_test_top.env.s [SCO] SLV ERROR during READ OP
# ----------------------------------------------------------------
# UVM_INFO ../uvc/env/apb_ram_driver.sv(78) @ 6670: uvm_test_top.env.a.d [DRV] mode:readd, addr:83, wdata:1055755987, rdata:0, slverr:0
# UVM_INFO ../uvc/env/apb_ram_scoreboard.sv(41) @ 6710: uvm_test_top.env.s [SCO] SLV ERROR during READ OP
# ----------------------------------------------------------------
# UVM_INFO ../uvc/env/apb_ram_driver.sv(78) @ 6730: uvm_test_top.env.a.d [DRV] mode:readd, addr:59, wdata:78192278, rdata:0, slverr:0
# UVM_INFO ../uvc/env/apb_ram_scoreboard.sv(41) @ 6770: uvm_test_top.env.s [SCO] SLV ERROR during READ OP
# ----------------------------------------------------------------
# UVM_INFO ../uvc/env/apb_ram_driver.sv(78) @ 6790: uvm_test_top.env.a.d [DRV] mode:readd, addr:51, wdata:3810780570, rdata:0, slverr:0
# UVM_INFO ../uvc/env/apb_ram_scoreboard.sv(41) @ 6830: uvm_test_top.env.s [SCO] SLV ERROR during READ OP
# ----------------------------------------------------------------
# UVM_INFO ../uvc/env/apb_ram_driver.sv(78) @ 6850: uvm_test_top.env.a.d [DRV] mode:readd, addr:33, wdata:322757482, rdata:0, slverr:0
# UVM_INFO ../uvc/env/apb_ram_scoreboard.sv(41) @ 6890: uvm_test_top.env.s [SCO] SLV ERROR during READ OP
# ----------------------------------------------------------------
# UVM_INFO ../uvc/env/apb_ram_driver.sv(78) @ 6910: uvm_test_top.env.a.d [DRV] mode:readd, addr:78, wdata:86746718, rdata:0, slverr:0
# UVM_INFO ../uvc/env/apb_ram_scoreboard.sv(41) @ 6950: uvm_test_top.env.s [SCO] SLV ERROR during READ OP
# ----------------------------------------------------------------
# UVM_INFO ../uvc/env/apb_ram_driver.sv(78) @ 6970: uvm_test_top.env.a.d [DRV] mode:readd, addr:43, wdata:2478945088, rdata:0, slverr:0
# UVM_INFO ../uvc/env/apb_ram_scoreboard.sv(41) @ 7010: uvm_test_top.env.s [SCO] SLV ERROR during READ OP
# ----------------------------------------------------------------
# UVM_INFO ../uvc/env/apb_ram_driver.sv(78) @ 7030: uvm_test_top.env.a.d [DRV] mode:readd, addr:87, wdata:4077937275, rdata:0, slverr:0
# UVM_INFO ../uvc/env/apb_ram_scoreboard.sv(41) @ 7070: uvm_test_top.env.s [SCO] SLV ERROR during READ OP
# ----------------------------------------------------------------
# UVM_INFO ../uvc/env/apb_ram_driver.sv(78) @ 7090: uvm_test_top.env.a.d [DRV] mode:readd, addr:78, wdata:2148780082, rdata:0, slverr:0
# UVM_INFO ../uvc/env/apb_ram_scoreboard.sv(41) @ 7130: uvm_test_top.env.s [SCO] SLV ERROR during READ OP
# ----------------------------------------------------------------
# UVM_INFO ../uvc/env/apb_ram_driver.sv(78) @ 7150: uvm_test_top.env.a.d [DRV] mode:readd, addr:52, wdata:3687998549, rdata:0, slverr:0
# UVM_INFO ../uvc/env/apb_ram_scoreboard.sv(41) @ 7190: uvm_test_top.env.s [SCO] SLV ERROR during READ OP
# ----------------------------------------------------------------
# UVM_INFO ../uvc/env/apb_ram_driver.sv(78) @ 7210: uvm_test_top.env.a.d [DRV] mode:readd, addr:75, wdata:1969942284, rdata:0, slverr:0
# UVM_INFO ../uvc/env/apb_ram_scoreboard.sv(41) @ 7250: uvm_test_top.env.s [SCO] SLV ERROR during READ OP
# ----------------------------------------------------------------
# UVM_INFO ../uvc/env/apb_ram_driver.sv(78) @ 7270: uvm_test_top.env.a.d [DRV] mode:readd, addr:32, wdata:3337416416, rdata:0, slverr:0
# UVM_INFO ../uvc/env/apb_ram_scoreboard.sv(41) @ 7310: uvm_test_top.env.s [SCO] SLV ERROR during READ OP
# ----------------------------------------------------------------
# UVM_INFO ../uvc/env/apb_ram_driver.sv(78) @ 7330: uvm_test_top.env.a.d [DRV] mode:readd, addr:39, wdata:1710853968, rdata:0, slverr:0
# UVM_INFO ../uvc/env/apb_ram_scoreboard.sv(41) @ 7370: uvm_test_top.env.s [SCO] SLV ERROR during READ OP
# ----------------------------------------------------------------
# UVM_INFO ../uvc/env/apb_ram_driver.sv(78) @ 7390: uvm_test_top.env.a.d [DRV] mode:readd, addr:87, wdata:821409746, rdata:0, slverr:0
# UVM_INFO ../uvc/env/apb_ram_scoreboard.sv(41) @ 7430: uvm_test_top.env.s [SCO] SLV ERROR during READ OP
# ----------------------------------------------------------------
# UVM_INFO ../uvc/env/apb_ram_driver.sv(78) @ 7450: uvm_test_top.env.a.d [DRV] mode:readd, addr:59, wdata:153223450, rdata:0, slverr:0
# UVM_INFO ../uvc/env/apb_ram_scoreboard.sv(41) @ 7490: uvm_test_top.env.s [SCO] SLV ERROR during READ OP
# ----------------------------------------------------------------
# UVM_INFO ../uvc/env/apb_ram_driver.sv(78) @ 7510: uvm_test_top.env.a.d [DRV] mode:readd, addr:60, wdata:166857563, rdata:0, slverr:0
# UVM_INFO ../uvc/env/apb_ram_scoreboard.sv(41) @ 7550: uvm_test_top.env.s [SCO] SLV ERROR during READ OP
# ----------------------------------------------------------------
# UVM_INFO ../uvc/env/apb_ram_driver.sv(78) @ 7570: uvm_test_top.env.a.d [DRV] mode:readd, addr:50, wdata:664546674, rdata:0, slverr:0
# UVM_INFO ../uvc/env/apb_ram_scoreboard.sv(41) @ 7610: uvm_test_top.env.s [SCO] SLV ERROR during READ OP
# ----------------------------------------------------------------
# UVM_INFO ../uvc/env/apb_ram_driver.sv(78) @ 7630: uvm_test_top.env.a.d [DRV] mode:readd, addr:72, wdata:1030322138, rdata:0, slverr:0
# UVM_INFO ../uvc/env/apb_ram_scoreboard.sv(41) @ 7670: uvm_test_top.env.s [SCO] SLV ERROR during READ OP
# ----------------------------------------------------------------
# UVM_INFO ../uvc/env/apb_ram_driver.sv(78) @ 7690: uvm_test_top.env.a.d [DRV] mode:readd, addr:32, wdata:1988183800, rdata:0, slverr:0
# UVM_INFO ../uvc/env/apb_ram_scoreboard.sv(41) @ 7730: uvm_test_top.env.s [SCO] SLV ERROR during READ OP
# ----------------------------------------------------------------
# UVM_INFO ../uvc/env/apb_ram_driver.sv(78) @ 7750: uvm_test_top.env.a.d [DRV] mode:readd, addr:44, wdata:3840895145, rdata:0, slverr:0
# UVM_INFO ../uvc/env/apb_ram_scoreboard.sv(41) @ 7790: uvm_test_top.env.s [SCO] SLV ERROR during READ OP
# ----------------------------------------------------------------
# UVM_INFO ../uvc/env/apb_ram_driver.sv(78) @ 7810: uvm_test_top.env.a.d [DRV] mode:readd, addr:37, wdata:2011130809, rdata:0, slverr:0
# UVM_INFO ../uvc/env/apb_ram_scoreboard.sv(41) @ 7850: uvm_test_top.env.s [SCO] SLV ERROR during READ OP
# ----------------------------------------------------------------
# UVM_INFO ../uvc/env/apb_ram_driver.sv(78) @ 7870: uvm_test_top.env.a.d [DRV] mode:readd, addr:58, wdata:1150916601, rdata:0, slverr:0
# UVM_INFO ../uvc/env/apb_ram_scoreboard.sv(41) @ 7910: uvm_test_top.env.s [SCO] SLV ERROR during READ OP
# ----------------------------------------------------------------
# UVM_INFO ../uvc/env/apb_ram_driver.sv(78) @ 7930: uvm_test_top.env.a.d [DRV] mode:readd, addr:59, wdata:2825991358, rdata:0, slverr:0
# UVM_INFO ../uvc/env/apb_ram_scoreboard.sv(41) @ 7970: uvm_test_top.env.s [SCO] SLV ERROR during READ OP
# ----------------------------------------------------------------
# UVM_INFO ../uvc/env/apb_ram_driver.sv(78) @ 7990: uvm_test_top.env.a.d [DRV] mode:readd, addr:58, wdata:2548276334, rdata:0, slverr:0
# UVM_INFO ../uvc/env/apb_ram_scoreboard.sv(41) @ 8030: uvm_test_top.env.s [SCO] SLV ERROR during READ OP
# ----------------------------------------------------------------
# UVM_INFO ../uvc/env/apb_ram_driver.sv(78) @ 8050: uvm_test_top.env.a.d [DRV] mode:readd, addr:89, wdata:3590852060, rdata:0, slverr:0
# UVM_INFO ../uvc/env/apb_ram_scoreboard.sv(41) @ 8090: uvm_test_top.env.s [SCO] SLV ERROR during READ OP
# ----------------------------------------------------------------
# UVM_INFO ../uvc/env/apb_ram_driver.sv(78) @ 8110: uvm_test_top.env.a.d [DRV] mode:readd, addr:51, wdata:769091389, rdata:0, slverr:0
# UVM_INFO ../uvc/env/apb_ram_scoreboard.sv(41) @ 8150: uvm_test_top.env.s [SCO] SLV ERROR during READ OP
# ----------------------------------------------------------------
# UVM_INFO ../uvc/env/apb_ram_driver.sv(78) @ 8170: uvm_test_top.env.a.d [DRV] mode:readd, addr:47, wdata:3950128786, rdata:0, slverr:0
# UVM_INFO ../uvc/env/apb_ram_scoreboard.sv(41) @ 8210: uvm_test_top.env.s [SCO] SLV ERROR during READ OP
# ----------------------------------------------------------------
# UVM_INFO ../uvc/env/apb_ram_driver.sv(78) @ 8230: uvm_test_top.env.a.d [DRV] mode:readd, addr:90, wdata:2207862757, rdata:0, slverr:0
# UVM_INFO ../uvc/env/apb_ram_scoreboard.sv(41) @ 8270: uvm_test_top.env.s [SCO] SLV ERROR during READ OP
# ----------------------------------------------------------------
# UVM_INFO ../uvc/env/apb_ram_driver.sv(78) @ 8290: uvm_test_top.env.a.d [DRV] mode:readd, addr:53, wdata:3340501546, rdata:0, slverr:0
# UVM_INFO ../uvc/env/apb_ram_scoreboard.sv(41) @ 8330: uvm_test_top.env.s [SCO] SLV ERROR during READ OP
# ----------------------------------------------------------------
# UVM_INFO ../uvc/env/apb_ram_driver.sv(78) @ 8350: uvm_test_top.env.a.d [DRV] mode:readd, addr:52, wdata:3882506872, rdata:0, slverr:0
# UVM_INFO ../uvc/env/apb_ram_scoreboard.sv(41) @ 8390: uvm_test_top.env.s [SCO] SLV ERROR during READ OP
# ----------------------------------------------------------------
# UVM_INFO ../uvc/env/apb_ram_driver.sv(78) @ 8410: uvm_test_top.env.a.d [DRV] mode:readd, addr:88, wdata:1130505767, rdata:0, slverr:0
# UVM_INFO ../uvc/env/apb_ram_scoreboard.sv(41) @ 8450: uvm_test_top.env.s [SCO] SLV ERROR during READ OP
# ----------------------------------------------------------------
# UVM_INFO ../uvc/env/apb_ram_driver.sv(78) @ 8470: uvm_test_top.env.a.d [DRV] mode:readd, addr:55, wdata:4247768858, rdata:0, slverr:0
# UVM_INFO ../uvc/env/apb_ram_scoreboard.sv(41) @ 8510: uvm_test_top.env.s [SCO] SLV ERROR during READ OP
# ----------------------------------------------------------------
# UVM_INFO ../uvc/env/apb_ram_driver.sv(78) @ 8530: uvm_test_top.env.a.d [DRV] mode:readd, addr:97, wdata:1133814824, rdata:0, slverr:0
# UVM_INFO ../uvc/env/apb_ram_scoreboard.sv(41) @ 8570: uvm_test_top.env.s [SCO] SLV ERROR during READ OP
# ----------------------------------------------------------------
# UVM_INFO ../uvc/env/apb_ram_driver.sv(78) @ 8590: uvm_test_top.env.a.d [DRV] mode:readd, addr:57, wdata:3014625495, rdata:0, slverr:0
# UVM_INFO ../uvc/env/apb_ram_scoreboard.sv(41) @ 8630: uvm_test_top.env.s [SCO] SLV ERROR during READ OP
# ----------------------------------------------------------------
# UVM_INFO ../uvc/env/apb_ram_driver.sv(78) @ 8650: uvm_test_top.env.a.d [DRV] mode:readd, addr:41, wdata:2264520271, rdata:0, slverr:0
# UVM_INFO ../uvc/env/apb_ram_scoreboard.sv(41) @ 8690: uvm_test_top.env.s [SCO] SLV ERROR during READ OP
# ----------------------------------------------------------------
# UVM_INFO ../uvc/env/apb_ram_driver.sv(78) @ 8710: uvm_test_top.env.a.d [DRV] mode:readd, addr:56, wdata:310717168, rdata:0, slverr:0
# UVM_INFO ../uvc/env/apb_ram_scoreboard.sv(41) @ 8750: uvm_test_top.env.s [SCO] SLV ERROR during READ OP
# ----------------------------------------------------------------
# UVM_INFO ../uvc/env/apb_ram_driver.sv(78) @ 8770: uvm_test_top.env.a.d [DRV] mode:readd, addr:97, wdata:3688955785, rdata:0, slverr:0
# UVM_INFO ../uvc/env/apb_ram_scoreboard.sv(41) @ 8810: uvm_test_top.env.s [SCO] SLV ERROR during READ OP
# ----------------------------------------------------------------
# UVM_INFO ../uvc/env/apb_ram_driver.sv(78) @ 8830: uvm_test_top.env.a.d [DRV] mode:readd, addr:98, wdata:1183555303, rdata:0, slverr:0
# UVM_INFO ../uvc/env/apb_ram_scoreboard.sv(41) @ 8870: uvm_test_top.env.s [SCO] SLV ERROR during READ OP
# ----------------------------------------------------------------
# UVM_INFO ../uvc/env/apb_ram_driver.sv(78) @ 8890: uvm_test_top.env.a.d [DRV] mode:readd, addr:59, wdata:2058902554, rdata:0, slverr:0
# UVM_INFO ../uvc/env/apb_ram_scoreboard.sv(41) @ 8930: uvm_test_top.env.s [SCO] SLV ERROR during READ OP
# ----------------------------------------------------------------
# UVM_INFO ../uvc/env/apb_ram_driver.sv(78) @ 8950: uvm_test_top.env.a.d [DRV] mode:readd, addr:66, wdata:4023841771, rdata:0, slverr:0
# UVM_INFO ../uvc/env/apb_ram_scoreboard.sv(41) @ 8990: uvm_test_top.env.s [SCO] SLV ERROR during READ OP
# ----------------------------------------------------------------
# UVM_INFO ../uvc/env/apb_ram_driver.sv(78) @ 9010: uvm_test_top.env.a.d [DRV] mode:readd, addr:79, wdata:2954956876, rdata:0, slverr:0
# UVM_INFO ../uvc/env/apb_ram_scoreboard.sv(41) @ 9050: uvm_test_top.env.s [SCO] SLV ERROR during READ OP
# ----------------------------------------------------------------
# UVM_INFO ../uvc/env/apb_ram_driver.sv(78) @ 9070: uvm_test_top.env.a.d [DRV] mode:readd, addr:67, wdata:2223237463, rdata:0, slverr:0
# UVM_INFO ../uvc/env/apb_ram_scoreboard.sv(41) @ 9110: uvm_test_top.env.s [SCO] SLV ERROR during READ OP
# ----------------------------------------------------------------
# UVM_INFO ../uvc/env/apb_ram_driver.sv(78) @ 9130: uvm_test_top.env.a.d [DRV] mode:readd, addr:69, wdata:2974829014, rdata:0, slverr:0
# UVM_INFO ../uvc/env/apb_ram_scoreboard.sv(41) @ 9170: uvm_test_top.env.s [SCO] SLV ERROR during READ OP
# ----------------------------------------------------------------
# UVM_INFO ../uvc/env/apb_ram_driver.sv(78) @ 9190: uvm_test_top.env.a.d [DRV] mode:readd, addr:54, wdata:1192269762, rdata:0, slverr:0
# UVM_INFO ../uvc/env/apb_ram_scoreboard.sv(41) @ 9230: uvm_test_top.env.s [SCO] SLV ERROR during READ OP
# ----------------------------------------------------------------
# UVM_INFO ../uvc/env/apb_ram_driver.sv(78) @ 9250: uvm_test_top.env.a.d [DRV] mode:readd, addr:92, wdata:1907849944, rdata:0, slverr:0
# UVM_INFO ../uvc/env/apb_ram_scoreboard.sv(41) @ 9290: uvm_test_top.env.s [SCO] SLV ERROR during READ OP
# ----------------------------------------------------------------
# UVM_INFO ../uvc/env/apb_ram_driver.sv(78) @ 9310: uvm_test_top.env.a.d [DRV] mode:readd, addr:47, wdata:2221954395, rdata:0, slverr:0
# UVM_INFO ../uvc/env/apb_ram_scoreboard.sv(41) @ 9350: uvm_test_top.env.s [SCO] SLV ERROR during READ OP
# ----------------------------------------------------------------
# UVM_INFO ../uvc/env/apb_ram_driver.sv(78) @ 9370: uvm_test_top.env.a.d [DRV] mode:readd, addr:39, wdata:2175067410, rdata:0, slverr:0
# UVM_INFO ../uvc/env/apb_ram_scoreboard.sv(41) @ 9410: uvm_test_top.env.s [SCO] SLV ERROR during READ OP
# ----------------------------------------------------------------
# UVM_INFO ../uvc/env/apb_ram_driver.sv(78) @ 9430: uvm_test_top.env.a.d [DRV] mode:readd, addr:59, wdata:3335452793, rdata:0, slverr:0
# UVM_INFO ../uvc/env/apb_ram_scoreboard.sv(41) @ 9470: uvm_test_top.env.s [SCO] SLV ERROR during READ OP
# ----------------------------------------------------------------
# UVM_INFO ../uvc/env/apb_ram_driver.sv(78) @ 9490: uvm_test_top.env.a.d [DRV] mode:readd, addr:48, wdata:3411786402, rdata:0, slverr:0
# UVM_INFO ../uvc/env/apb_ram_scoreboard.sv(41) @ 9530: uvm_test_top.env.s [SCO] SLV ERROR during READ OP
# ----------------------------------------------------------------
# UVM_INFO ../uvc/env/apb_ram_driver.sv(78) @ 9550: uvm_test_top.env.a.d [DRV] mode:readd, addr:48, wdata:1787588036, rdata:0, slverr:0
# UVM_INFO ../uvc/env/apb_ram_scoreboard.sv(41) @ 9590: uvm_test_top.env.s [SCO] SLV ERROR during READ OP
# ----------------------------------------------------------------
# UVM_INFO ../uvc/env/apb_ram_driver.sv(78) @ 9610: uvm_test_top.env.a.d [DRV] mode:readd, addr:82, wdata:2659618988, rdata:0, slverr:0
# UVM_INFO ../uvc/env/apb_ram_scoreboard.sv(41) @ 9650: uvm_test_top.env.s [SCO] SLV ERROR during READ OP
# ----------------------------------------------------------------
# UVM_INFO ../uvc/env/apb_ram_driver.sv(78) @ 9670: uvm_test_top.env.a.d [DRV] mode:readd, addr:67, wdata:1659277432, rdata:0, slverr:0
# UVM_INFO ../uvc/env/apb_ram_scoreboard.sv(41) @ 9710: uvm_test_top.env.s [SCO] SLV ERROR during READ OP
# ----------------------------------------------------------------
# UVM_INFO ../uvc/env/apb_ram_driver.sv(78) @ 9730: uvm_test_top.env.a.d [DRV] mode:readd, addr:42, wdata:3936361046, rdata:0, slverr:0
# UVM_INFO ../uvc/env/apb_ram_scoreboard.sv(41) @ 9770: uvm_test_top.env.s [SCO] SLV ERROR during READ OP
# ----------------------------------------------------------------
# UVM_INFO ../uvc/env/apb_ram_driver.sv(78) @ 9790: uvm_test_top.env.a.d [DRV] mode:readd, addr:98, wdata:1794837671, rdata:0, slverr:0
# UVM_INFO ../uvc/env/apb_ram_scoreboard.sv(41) @ 9830: uvm_test_top.env.s [SCO] SLV ERROR during READ OP
# ----------------------------------------------------------------
# UVM_INFO ../uvc/env/apb_ram_driver.sv(78) @ 9850: uvm_test_top.env.a.d [DRV] mode:readd, addr:92, wdata:3710513179, rdata:0, slverr:0
# UVM_INFO ../uvc/env/apb_ram_scoreboard.sv(41) @ 9890: uvm_test_top.env.s [SCO] SLV ERROR during READ OP
# ----------------------------------------------------------------
# UVM_INFO ../uvc/env/apb_ram_driver.sv(78) @ 9910: uvm_test_top.env.a.d [DRV] mode:readd, addr:86, wdata:3640719809, rdata:0, slverr:0
# UVM_INFO ../uvc/env/apb_ram_scoreboard.sv(41) @ 9950: uvm_test_top.env.s [SCO] SLV ERROR during READ OP
# ----------------------------------------------------------------
# UVM_INFO ../uvc/env/apb_ram_driver.sv(78) @ 9970: uvm_test_top.env.a.d [DRV] mode:readd, addr:37, wdata:787977165, rdata:0, slverr:0
# UVM_INFO ../uvc/env/apb_ram_scoreboard.sv(41) @ 10010: uvm_test_top.env.s [SCO] SLV ERROR during READ OP
# ----------------------------------------------------------------
# UVM_INFO ../uvc/env/apb_ram_driver.sv(78) @ 10030: uvm_test_top.env.a.d [DRV] mode:readd, addr:67, wdata:2345142233, rdata:0, slverr:0
# UVM_INFO ../uvc/env/apb_ram_scoreboard.sv(41) @ 10070: uvm_test_top.env.s [SCO] SLV ERROR during READ OP
# ----------------------------------------------------------------
# UVM_INFO ../uvc/env/apb_ram_driver.sv(78) @ 10090: uvm_test_top.env.a.d [DRV] mode:readd, addr:95, wdata:801649942, rdata:0, slverr:0
# UVM_INFO ../uvc/env/apb_ram_scoreboard.sv(41) @ 10130: uvm_test_top.env.s [SCO] SLV ERROR during READ OP
# ----------------------------------------------------------------
# UVM_INFO ../uvc/env/apb_ram_driver.sv(78) @ 10150: uvm_test_top.env.a.d [DRV] mode:readd, addr:66, wdata:2006104193, rdata:0, slverr:0
# UVM_INFO ../uvc/env/apb_ram_scoreboard.sv(41) @ 10190: uvm_test_top.env.s [SCO] SLV ERROR during READ OP
# ----------------------------------------------------------------
# UVM_INFO ../uvc/env/apb_ram_driver.sv(78) @ 10210: uvm_test_top.env.a.d [DRV] mode:readd, addr:49, wdata:1476042363, rdata:0, slverr:0
# UVM_INFO ../uvc/env/apb_ram_scoreboard.sv(41) @ 10250: uvm_test_top.env.s [SCO] SLV ERROR during READ OP
# ----------------------------------------------------------------
# UVM_INFO ../uvc/env/apb_ram_driver.sv(78) @ 10270: uvm_test_top.env.a.d [DRV] mode:readd, addr:64, wdata:3518621329, rdata:0, slverr:0
# UVM_INFO ../uvc/env/apb_ram_scoreboard.sv(41) @ 10310: uvm_test_top.env.s [SCO] SLV ERROR during READ OP
# ----------------------------------------------------------------
# UVM_INFO ../uvc/env/apb_ram_driver.sv(78) @ 10330: uvm_test_top.env.a.d [DRV] mode:readd, addr:75, wdata:2137532133, rdata:0, slverr:0
# UVM_INFO ../uvc/env/apb_ram_scoreboard.sv(41) @ 10370: uvm_test_top.env.s [SCO] SLV ERROR during READ OP
# ----------------------------------------------------------------
# UVM_INFO ../uvc/env/apb_ram_driver.sv(78) @ 10390: uvm_test_top.env.a.d [DRV] mode:readd, addr:52, wdata:2776129333, rdata:0, slverr:0
# UVM_INFO ../uvc/env/apb_ram_scoreboard.sv(41) @ 10430: uvm_test_top.env.s [SCO] SLV ERROR during READ OP
# ----------------------------------------------------------------
# UVM_INFO ../uvc/env/apb_ram_driver.sv(78) @ 10450: uvm_test_top.env.a.d [DRV] mode:readd, addr:63, wdata:3262606895, rdata:0, slverr:0
# UVM_INFO ../uvc/env/apb_ram_scoreboard.sv(41) @ 10490: uvm_test_top.env.s [SCO] SLV ERROR during READ OP
# ----------------------------------------------------------------
# UVM_INFO ../uvc/env/apb_ram_driver.sv(78) @ 10510: uvm_test_top.env.a.d [DRV] mode:readd, addr:69, wdata:3261359776, rdata:0, slverr:0
# UVM_INFO ../uvc/env/apb_ram_scoreboard.sv(41) @ 10550: uvm_test_top.env.s [SCO] SLV ERROR during READ OP
# ----------------------------------------------------------------
# UVM_INFO ../uvc/env/apb_ram_driver.sv(78) @ 10570: uvm_test_top.env.a.d [DRV] mode:readd, addr:66, wdata:527631564, rdata:0, slverr:0
# UVM_INFO ../uvc/env/apb_ram_scoreboard.sv(41) @ 10610: uvm_test_top.env.s [SCO] SLV ERROR during READ OP
# ----------------------------------------------------------------
# UVM_INFO ../uvc/env/apb_ram_driver.sv(78) @ 10630: uvm_test_top.env.a.d [DRV] mode:readd, addr:51, wdata:2087854648, rdata:0, slverr:0
# UVM_INFO ../uvc/env/apb_ram_scoreboard.sv(41) @ 10670: uvm_test_top.env.s [SCO] SLV ERROR during READ OP
# ----------------------------------------------------------------
# UVM_INFO ../uvc/env/apb_ram_driver.sv(78) @ 10690: uvm_test_top.env.a.d [DRV] mode:readd, addr:87, wdata:173185429, rdata:0, slverr:0
# UVM_INFO ../uvc/env/apb_ram_scoreboard.sv(41) @ 10730: uvm_test_top.env.s [SCO] SLV ERROR during READ OP
# ----------------------------------------------------------------
# UVM_INFO ../uvc/env/apb_ram_driver.sv(78) @ 10750: uvm_test_top.env.a.d [DRV] mode:readd, addr:91, wdata:554971349, rdata:0, slverr:0
# UVM_INFO ../uvc/env/apb_ram_scoreboard.sv(41) @ 10790: uvm_test_top.env.s [SCO] SLV ERROR during READ OP
# ----------------------------------------------------------------
# UVM_INFO ../uvc/env/apb_ram_driver.sv(78) @ 10810: uvm_test_top.env.a.d [DRV] mode:readd, addr:62, wdata:3614734715, rdata:0, slverr:0
# UVM_INFO ../uvc/env/apb_ram_scoreboard.sv(41) @ 10850: uvm_test_top.env.s [SCO] SLV ERROR during READ OP
# ----------------------------------------------------------------
# UVM_INFO ../uvc/env/apb_ram_driver.sv(78) @ 10870: uvm_test_top.env.a.d [DRV] mode:readd, addr:72, wdata:235311237, rdata:0, slverr:0
# UVM_INFO ../uvc/env/apb_ram_scoreboard.sv(41) @ 10910: uvm_test_top.env.s [SCO] SLV ERROR during READ OP
# ----------------------------------------------------------------
# UVM_INFO ../uvc/env/apb_ram_driver.sv(78) @ 10930: uvm_test_top.env.a.d [DRV] mode:readd, addr:50, wdata:2476399168, rdata:0, slverr:0
# UVM_INFO ../uvc/env/apb_ram_scoreboard.sv(41) @ 10970: uvm_test_top.env.s [SCO] SLV ERROR during READ OP
# ----------------------------------------------------------------
# UVM_INFO ../uvc/env/apb_ram_driver.sv(78) @ 10990: uvm_test_top.env.a.d [DRV] mode:readd, addr:47, wdata:2956639403, rdata:0, slverr:0
# UVM_INFO ../uvc/env/apb_ram_scoreboard.sv(41) @ 11030: uvm_test_top.env.s [SCO] SLV ERROR during READ OP
# ----------------------------------------------------------------
# UVM_INFO ../uvc/env/apb_ram_driver.sv(78) @ 11050: uvm_test_top.env.a.d [DRV] mode:readd, addr:41, wdata:1278688331, rdata:0, slverr:0
# UVM_INFO ../uvc/env/apb_ram_scoreboard.sv(41) @ 11090: uvm_test_top.env.s [SCO] SLV ERROR during READ OP
# ----------------------------------------------------------------
# UVM_INFO ../uvc/env/apb_ram_driver.sv(78) @ 11110: uvm_test_top.env.a.d [DRV] mode:readd, addr:89, wdata:1113423029, rdata:0, slverr:0
# UVM_INFO ../uvc/env/apb_ram_scoreboard.sv(41) @ 11150: uvm_test_top.env.s [SCO] SLV ERROR during READ OP
# ----------------------------------------------------------------
# UVM_INFO ../uvc/env/apb_ram_driver.sv(78) @ 11170: uvm_test_top.env.a.d [DRV] mode:readd, addr:35, wdata:684610537, rdata:0, slverr:0
# UVM_INFO ../uvc/env/apb_ram_scoreboard.sv(41) @ 11210: uvm_test_top.env.s [SCO] SLV ERROR during READ OP
# ----------------------------------------------------------------
# UVM_INFO ../uvc/env/apb_ram_driver.sv(78) @ 11230: uvm_test_top.env.a.d [DRV] mode:readd, addr:81, wdata:2446717284, rdata:0, slverr:0
# UVM_INFO ../uvc/env/apb_ram_scoreboard.sv(41) @ 11270: uvm_test_top.env.s [SCO] SLV ERROR during READ OP
# ----------------------------------------------------------------
# UVM_INFO ../uvc/env/apb_ram_driver.sv(78) @ 11290: uvm_test_top.env.a.d [DRV] mode:readd, addr:44, wdata:3395233769, rdata:0, slverr:0
# UVM_INFO ../uvc/env/apb_ram_scoreboard.sv(41) @ 11330: uvm_test_top.env.s [SCO] SLV ERROR during READ OP
# ----------------------------------------------------------------
# UVM_INFO ../uvc/env/apb_ram_driver.sv(78) @ 11350: uvm_test_top.env.a.d [DRV] mode:readd, addr:38, wdata:1174950360, rdata:0, slverr:0
# UVM_INFO ../uvc/env/apb_ram_scoreboard.sv(41) @ 11390: uvm_test_top.env.s [SCO] SLV ERROR during READ OP
# ----------------------------------------------------------------
# UVM_INFO ../uvc/env/apb_ram_driver.sv(78) @ 11410: uvm_test_top.env.a.d [DRV] mode:readd, addr:74, wdata:3603049644, rdata:0, slverr:0
# UVM_INFO ../uvc/env/apb_ram_scoreboard.sv(41) @ 11450: uvm_test_top.env.s [SCO] SLV ERROR during READ OP
# ----------------------------------------------------------------
# UVM_INFO ../uvc/env/apb_ram_driver.sv(78) @ 11470: uvm_test_top.env.a.d [DRV] mode:readd, addr:39, wdata:1775645361, rdata:0, slverr:0
# UVM_INFO ../uvc/env/apb_ram_scoreboard.sv(41) @ 11510: uvm_test_top.env.s [SCO] SLV ERROR during READ OP
# ----------------------------------------------------------------
# UVM_INFO ../uvc/env/apb_ram_driver.sv(78) @ 11530: uvm_test_top.env.a.d [DRV] mode:readd, addr:94, wdata:376497910, rdata:0, slverr:0
# UVM_INFO ../uvc/env/apb_ram_scoreboard.sv(41) @ 11570: uvm_test_top.env.s [SCO] SLV ERROR during READ OP
# ----------------------------------------------------------------
# UVM_INFO ../uvc/env/apb_ram_driver.sv(78) @ 11590: uvm_test_top.env.a.d [DRV] mode:readd, addr:87, wdata:400974934, rdata:0, slverr:0
# UVM_INFO ../uvc/env/apb_ram_scoreboard.sv(41) @ 11630: uvm_test_top.env.s [SCO] SLV ERROR during READ OP
# ----------------------------------------------------------------
# UVM_INFO ../uvc/env/apb_ram_driver.sv(78) @ 11650: uvm_test_top.env.a.d [DRV] mode:readd, addr:34, wdata:4142374801, rdata:0, slverr:0
# UVM_INFO ../uvc/env/apb_ram_scoreboard.sv(41) @ 11690: uvm_test_top.env.s [SCO] SLV ERROR during READ OP
# ----------------------------------------------------------------
# UVM_INFO ../uvc/env/apb_ram_driver.sv(78) @ 11710: uvm_test_top.env.a.d [DRV] mode:readd, addr:86, wdata:3150480132, rdata:0, slverr:0
# UVM_INFO ../uvc/env/apb_ram_scoreboard.sv(41) @ 11750: uvm_test_top.env.s [SCO] SLV ERROR during READ OP
# ----------------------------------------------------------------
# UVM_INFO ../uvc/env/apb_ram_driver.sv(78) @ 11770: uvm_test_top.env.a.d [DRV] mode:readd, addr:33, wdata:1569023787, rdata:0, slverr:0
# UVM_INFO ../uvc/env/apb_ram_scoreboard.sv(41) @ 11810: uvm_test_top.env.s [SCO] SLV ERROR during READ OP
# ----------------------------------------------------------------
# UVM_INFO ../uvc/env/apb_ram_driver.sv(78) @ 11830: uvm_test_top.env.a.d [DRV] mode:readd, addr:97, wdata:2022174404, rdata:0, slverr:0
# UVM_INFO ../uvc/env/apb_ram_scoreboard.sv(41) @ 11870: uvm_test_top.env.s [SCO] SLV ERROR during READ OP
# ----------------------------------------------------------------
# UVM_INFO ../uvc/env/apb_ram_driver.sv(78) @ 11890: uvm_test_top.env.a.d [DRV] mode:readd, addr:66, wdata:2304405851, rdata:0, slverr:0
# UVM_INFO ../uvc/env/apb_ram_scoreboard.sv(41) @ 11930: uvm_test_top.env.s [SCO] SLV ERROR during READ OP
# ----------------------------------------------------------------
# UVM_INFO ../uvc/env/apb_ram_driver.sv(78) @ 11950: uvm_test_top.env.a.d [DRV] mode:readd, addr:75, wdata:4281547652, rdata:0, slverr:0
# UVM_INFO ../uvc/env/apb_ram_scoreboard.sv(41) @ 11990: uvm_test_top.env.s [SCO] SLV ERROR during READ OP
# ----------------------------------------------------------------
# UVM_INFO ../uvc/env/apb_ram_driver.sv(78) @ 12010: uvm_test_top.env.a.d [DRV] mode:readd, addr:98, wdata:318844920, rdata:0, slverr:0
# UVM_INFO ../uvc/env/apb_ram_scoreboard.sv(41) @ 12050: uvm_test_top.env.s [SCO] SLV ERROR during READ OP
# ----------------------------------------------------------------
# UVM_INFO ../uvc/env/apb_ram_driver.sv(78) @ 12070: uvm_test_top.env.a.d [DRV] mode:readd, addr:69, wdata:400040318, rdata:0, slverr:0
# UVM_INFO ../uvc/env/apb_ram_scoreboard.sv(41) @ 12110: uvm_test_top.env.s [SCO] SLV ERROR during READ OP
# ----------------------------------------------------------------
# UVM_INFO ../uvc/env/apb_ram_driver.sv(78) @ 12130: uvm_test_top.env.a.d [DRV] mode:readd, addr:98, wdata:366698312, rdata:0, slverr:0
# UVM_INFO ../uvc/env/apb_ram_scoreboard.sv(41) @ 12170: uvm_test_top.env.s [SCO] SLV ERROR during READ OP
# ----------------------------------------------------------------
# UVM_INFO ../uvc/env/apb_ram_driver.sv(78) @ 12190: uvm_test_top.env.a.d [DRV] mode:readd, addr:72, wdata:3935591456, rdata:0, slverr:0
# UVM_INFO ../uvc/env/apb_ram_scoreboard.sv(41) @ 12230: uvm_test_top.env.s [SCO] SLV ERROR during READ OP
# ----------------------------------------------------------------
# UVM_INFO ../uvc/env/apb_ram_driver.sv(78) @ 12250: uvm_test_top.env.a.d [DRV] mode:readd, addr:62, wdata:1028655961, rdata:0, slverr:0
# UVM_INFO ../uvc/env/apb_ram_scoreboard.sv(41) @ 12290: uvm_test_top.env.s [SCO] SLV ERROR during READ OP
# ----------------------------------------------------------------
# UVM_INFO ../uvc/env/apb_ram_driver.sv(78) @ 12310: uvm_test_top.env.a.d [DRV] mode:readd, addr:36, wdata:3067379699, rdata:0, slverr:0
# UVM_INFO ../uvc/env/apb_ram_scoreboard.sv(41) @ 12350: uvm_test_top.env.s [SCO] SLV ERROR during READ OP
# ----------------------------------------------------------------
# UVM_INFO ../uvc/env/apb_ram_driver.sv(78) @ 12370: uvm_test_top.env.a.d [DRV] mode:readd, addr:83, wdata:3115828290, rdata:0, slverr:0
# UVM_INFO ../uvc/env/apb_ram_scoreboard.sv(41) @ 12410: uvm_test_top.env.s [SCO] SLV ERROR during READ OP
# ----------------------------------------------------------------
# UVM_INFO ../uvc/env/apb_ram_driver.sv(78) @ 12430: uvm_test_top.env.a.d [DRV] mode:readd, addr:37, wdata:2004521244, rdata:0, slverr:0
# UVM_INFO ../uvc/env/apb_ram_scoreboard.sv(41) @ 12470: uvm_test_top.env.s [SCO] SLV ERROR during READ OP
# ----------------------------------------------------------------
# UVM_INFO ../uvc/env/apb_ram_driver.sv(78) @ 12490: uvm_test_top.env.a.d [DRV] mode:readd, addr:97, wdata:3377184582, rdata:0, slverr:0
# UVM_INFO ../uvc/env/apb_ram_scoreboard.sv(41) @ 12530: uvm_test_top.env.s [SCO] SLV ERROR during READ OP
# ----------------------------------------------------------------
# UVM_INFO ../uvc/env/apb_ram_driver.sv(78) @ 12550: uvm_test_top.env.a.d [DRV] mode:readd, addr:33, wdata:723158303, rdata:0, slverr:0
# UVM_INFO ../uvc/env/apb_ram_scoreboard.sv(41) @ 12590: uvm_test_top.env.s [SCO] SLV ERROR during READ OP
# ----------------------------------------------------------------
# UVM_INFO ../uvc/env/apb_ram_driver.sv(78) @ 12610: uvm_test_top.env.a.d [DRV] mode:readd, addr:93, wdata:1555312539, rdata:0, slverr:0
# UVM_INFO ../uvc/env/apb_ram_scoreboard.sv(41) @ 12650: uvm_test_top.env.s [SCO] SLV ERROR during READ OP
# ----------------------------------------------------------------
# UVM_INFO ../uvc/env/apb_ram_driver.sv(78) @ 12670: uvm_test_top.env.a.d [DRV] mode:readd, addr:60, wdata:690523063, rdata:0, slverr:0
# UVM_INFO ../uvc/env/apb_ram_scoreboard.sv(41) @ 12710: uvm_test_top.env.s [SCO] SLV ERROR during READ OP
# ----------------------------------------------------------------
# UVM_INFO ../uvc/env/apb_ram_driver.sv(78) @ 12730: uvm_test_top.env.a.d [DRV] mode:readd, addr:48, wdata:4015223329, rdata:0, slverr:0
# UVM_INFO ../uvc/env/apb_ram_scoreboard.sv(41) @ 12770: uvm_test_top.env.s [SCO] SLV ERROR during READ OP
# ----------------------------------------------------------------
# UVM_INFO ../uvc/env/apb_ram_driver.sv(78) @ 12790: uvm_test_top.env.a.d [DRV] mode:readd, addr:94, wdata:49704364, rdata:0, slverr:0
# UVM_INFO ../uvc/env/apb_ram_scoreboard.sv(41) @ 12830: uvm_test_top.env.s [SCO] SLV ERROR during READ OP
# ----------------------------------------------------------------
# UVM_INFO ../uvc/env/apb_ram_driver.sv(78) @ 12850: uvm_test_top.env.a.d [DRV] mode:readd, addr:71, wdata:889099262, rdata:0, slverr:0
# UVM_INFO ../uvc/env/apb_ram_scoreboard.sv(41) @ 12890: uvm_test_top.env.s [SCO] SLV ERROR during READ OP
# ----------------------------------------------------------------
# UVM_INFO ../uvc/env/apb_ram_driver.sv(78) @ 12910: uvm_test_top.env.a.d [DRV] mode:readd, addr:62, wdata:2231044628, rdata:0, slverr:0
# UVM_INFO ../uvc/env/apb_ram_scoreboard.sv(41) @ 12950: uvm_test_top.env.s [SCO] SLV ERROR during READ OP
# ----------------------------------------------------------------
# UVM_INFO ../uvc/env/apb_ram_driver.sv(78) @ 12970: uvm_test_top.env.a.d [DRV] mode:readd, addr:81, wdata:705636355, rdata:0, slverr:0
# UVM_INFO ../uvc/env/apb_ram_scoreboard.sv(41) @ 13010: uvm_test_top.env.s [SCO] SLV ERROR during READ OP
# ----------------------------------------------------------------
# UVM_INFO ../uvc/env/apb_ram_driver.sv(78) @ 13030: uvm_test_top.env.a.d [DRV] mode:readd, addr:52, wdata:1240087122, rdata:0, slverr:0
# UVM_INFO ../uvc/env/apb_ram_scoreboard.sv(41) @ 13070: uvm_test_top.env.s [SCO] SLV ERROR during READ OP
# ----------------------------------------------------------------
# UVM_INFO ../uvc/env/apb_ram_driver.sv(78) @ 13090: uvm_test_top.env.a.d [DRV] mode:readd, addr:41, wdata:798058760, rdata:0, slverr:0
# UVM_INFO ../uvc/env/apb_ram_scoreboard.sv(41) @ 13130: uvm_test_top.env.s [SCO] SLV ERROR during READ OP
# ----------------------------------------------------------------
# UVM_INFO ../uvc/env/apb_ram_driver.sv(78) @ 13150: uvm_test_top.env.a.d [DRV] mode:readd, addr:77, wdata:4083235492, rdata:0, slverr:0
# UVM_INFO ../uvc/env/apb_ram_scoreboard.sv(41) @ 13190: uvm_test_top.env.s [SCO] SLV ERROR during READ OP
# ----------------------------------------------------------------
# UVM_INFO ../uvc/env/apb_ram_driver.sv(78) @ 13210: uvm_test_top.env.a.d [DRV] mode:readd, addr:42, wdata:3665136207, rdata:0, slverr:0
# UVM_INFO ../uvc/env/apb_ram_scoreboard.sv(41) @ 13250: uvm_test_top.env.s [SCO] SLV ERROR during READ OP
# ----------------------------------------------------------------
# UVM_INFO ../uvc/env/apb_ram_driver.sv(78) @ 13270: uvm_test_top.env.a.d [DRV] mode:readd, addr:48, wdata:799690770, rdata:0, slverr:0
# UVM_INFO ../uvc/env/apb_ram_scoreboard.sv(41) @ 13310: uvm_test_top.env.s [SCO] SLV ERROR during READ OP
# ----------------------------------------------------------------
# UVM_INFO ../uvc/env/apb_ram_driver.sv(78) @ 13330: uvm_test_top.env.a.d [DRV] mode:readd, addr:70, wdata:2722594362, rdata:0, slverr:0
# UVM_INFO ../uvc/env/apb_ram_scoreboard.sv(41) @ 13370: uvm_test_top.env.s [SCO] SLV ERROR during READ OP
# ----------------------------------------------------------------
# UVM_INFO ../uvc/env/apb_ram_driver.sv(78) @ 13390: uvm_test_top.env.a.d [DRV] mode:readd, addr:71, wdata:2247859741, rdata:0, slverr:0
# UVM_INFO ../uvc/env/apb_ram_scoreboard.sv(41) @ 13430: uvm_test_top.env.s [SCO] SLV ERROR during READ OP
# ----------------------------------------------------------------
# UVM_INFO ../uvc/env/apb_ram_driver.sv(78) @ 13450: uvm_test_top.env.a.d [DRV] mode:readd, addr:71, wdata:2164347913, rdata:0, slverr:0
# UVM_INFO ../uvc/env/apb_ram_scoreboard.sv(41) @ 13490: uvm_test_top.env.s [SCO] SLV ERROR during READ OP
# ----------------------------------------------------------------
# UVM_INFO ../uvc/env/apb_ram_driver.sv(78) @ 13510: uvm_test_top.env.a.d [DRV] mode:readd, addr:69, wdata:2885034233, rdata:0, slverr:0
# UVM_INFO ../uvc/env/apb_ram_scoreboard.sv(41) @ 13550: uvm_test_top.env.s [SCO] SLV ERROR during READ OP
# ----------------------------------------------------------------
# UVM_INFO ../uvc/env/apb_ram_driver.sv(78) @ 13570: uvm_test_top.env.a.d [DRV] mode:readd, addr:32, wdata:1720201703, rdata:0, slverr:0
# UVM_INFO ../uvc/env/apb_ram_scoreboard.sv(41) @ 13610: uvm_test_top.env.s [SCO] SLV ERROR during READ OP
# ----------------------------------------------------------------
# UVM_INFO ../uvc/env/apb_ram_driver.sv(78) @ 13630: uvm_test_top.env.a.d [DRV] mode:readd, addr:70, wdata:312612176, rdata:0, slverr:0
# UVM_INFO ../uvc/env/apb_ram_scoreboard.sv(41) @ 13670: uvm_test_top.env.s [SCO] SLV ERROR during READ OP
# ----------------------------------------------------------------
# UVM_INFO ../uvc/env/apb_ram_driver.sv(78) @ 13690: uvm_test_top.env.a.d [DRV] mode:readd, addr:63, wdata:3862259946, rdata:0, slverr:0
# UVM_INFO ../uvc/env/apb_ram_scoreboard.sv(41) @ 13730: uvm_test_top.env.s [SCO] SLV ERROR during READ OP
# ----------------------------------------------------------------
# UVM_INFO ../uvc/env/apb_ram_driver.sv(78) @ 13750: uvm_test_top.env.a.d [DRV] mode:readd, addr:75, wdata:3022731130, rdata:0, slverr:0
# UVM_INFO ../uvc/env/apb_ram_scoreboard.sv(41) @ 13790: uvm_test_top.env.s [SCO] SLV ERROR during READ OP
# ----------------------------------------------------------------
# UVM_INFO ../uvc/env/apb_ram_driver.sv(78) @ 13810: uvm_test_top.env.a.d [DRV] mode:readd, addr:94, wdata:341366704, rdata:0, slverr:0
# UVM_INFO ../uvc/env/apb_ram_scoreboard.sv(41) @ 13850: uvm_test_top.env.s [SCO] SLV ERROR during READ OP
# ----------------------------------------------------------------
# UVM_INFO ../uvc/env/apb_ram_driver.sv(78) @ 13870: uvm_test_top.env.a.d [DRV] mode:readd, addr:66, wdata:764589702, rdata:0, slverr:0
# UVM_INFO ../uvc/env/apb_ram_scoreboard.sv(41) @ 13910: uvm_test_top.env.s [SCO] SLV ERROR during READ OP
# ----------------------------------------------------------------
# UVM_INFO ../uvc/env/apb_ram_driver.sv(78) @ 13930: uvm_test_top.env.a.d [DRV] mode:readd, addr:62, wdata:4131507890, rdata:0, slverr:0
# UVM_INFO ../uvc/env/apb_ram_scoreboard.sv(41) @ 13970: uvm_test_top.env.s [SCO] SLV ERROR during READ OP
# ----------------------------------------------------------------
# UVM_INFO ../uvc/env/apb_ram_driver.sv(78) @ 13990: uvm_test_top.env.a.d [DRV] mode:readd, addr:82, wdata:3681232612, rdata:0, slverr:0
# UVM_INFO ../uvc/env/apb_ram_scoreboard.sv(41) @ 14030: uvm_test_top.env.s [SCO] SLV ERROR during READ OP
# ----------------------------------------------------------------
# UVM_INFO ../uvc/env/apb_ram_driver.sv(78) @ 14050: uvm_test_top.env.a.d [DRV] mode:readd, addr:47, wdata:438250927, rdata:0, slverr:0
# UVM_INFO ../uvc/env/apb_ram_scoreboard.sv(41) @ 14090: uvm_test_top.env.s [SCO] SLV ERROR during READ OP
# ----------------------------------------------------------------
# UVM_INFO ../uvc/env/apb_ram_driver.sv(78) @ 14110: uvm_test_top.env.a.d [DRV] mode:readd, addr:75, wdata:588702656, rdata:0, slverr:0
# UVM_INFO ../uvc/env/apb_ram_scoreboard.sv(41) @ 14150: uvm_test_top.env.s [SCO] SLV ERROR during READ OP
# ----------------------------------------------------------------
# UVM_INFO ../uvc/env/apb_ram_driver.sv(78) @ 14170: uvm_test_top.env.a.d [DRV] mode:readd, addr:40, wdata:1378384966, rdata:0, slverr:0
# UVM_INFO ../uvc/env/apb_ram_scoreboard.sv(41) @ 14210: uvm_test_top.env.s [SCO] SLV ERROR during READ OP
# ----------------------------------------------------------------
# UVM_INFO ../uvc/env/apb_ram_driver.sv(78) @ 14230: uvm_test_top.env.a.d [DRV] mode:readd, addr:35, wdata:2687314662, rdata:0, slverr:0
# UVM_INFO ../uvc/env/apb_ram_scoreboard.sv(41) @ 14270: uvm_test_top.env.s [SCO] SLV ERROR during READ OP
# ----------------------------------------------------------------
# UVM_INFO ../uvc/env/apb_ram_driver.sv(78) @ 14290: uvm_test_top.env.a.d [DRV] mode:readd, addr:70, wdata:4105429282, rdata:0, slverr:0
# UVM_INFO ../uvc/env/apb_ram_scoreboard.sv(41) @ 14330: uvm_test_top.env.s [SCO] SLV ERROR during READ OP
# ----------------------------------------------------------------
# UVM_INFO ../uvc/env/apb_ram_driver.sv(78) @ 14350: uvm_test_top.env.a.d [DRV] mode:readd, addr:53, wdata:1405744990, rdata:0, slverr:0
# UVM_INFO ../uvc/env/apb_ram_scoreboard.sv(41) @ 14390: uvm_test_top.env.s [SCO] SLV ERROR during READ OP
# ----------------------------------------------------------------
# UVM_INFO ../uvc/env/apb_ram_driver.sv(78) @ 14410: uvm_test_top.env.a.d [DRV] mode:readd, addr:87, wdata:2340038594, rdata:0, slverr:0
# UVM_INFO ../uvc/env/apb_ram_scoreboard.sv(41) @ 14450: uvm_test_top.env.s [SCO] SLV ERROR during READ OP
# ----------------------------------------------------------------
# UVM_INFO ../uvc/env/apb_ram_driver.sv(78) @ 14470: uvm_test_top.env.a.d [DRV] mode:readd, addr:62, wdata:3114081344, rdata:0, slverr:0
# UVM_INFO ../uvc/env/apb_ram_scoreboard.sv(41) @ 14510: uvm_test_top.env.s [SCO] SLV ERROR during READ OP
# ----------------------------------------------------------------
# UVM_INFO ../uvc/env/apb_ram_driver.sv(78) @ 14530: uvm_test_top.env.a.d [DRV] mode:readd, addr:79, wdata:1344701737, rdata:0, slverr:0
# UVM_INFO ../uvc/env/apb_ram_scoreboard.sv(41) @ 14570: uvm_test_top.env.s [SCO] SLV ERROR during READ OP
# ----------------------------------------------------------------
# UVM_INFO ../uvc/env/apb_ram_driver.sv(78) @ 14590: uvm_test_top.env.a.d [DRV] mode:readd, addr:33, wdata:3504429282, rdata:0, slverr:0
# UVM_INFO ../uvc/env/apb_ram_scoreboard.sv(41) @ 14630: uvm_test_top.env.s [SCO] SLV ERROR during READ OP
# ----------------------------------------------------------------
# UVM_INFO ../uvc/env/apb_ram_driver.sv(78) @ 14650: uvm_test_top.env.a.d [DRV] mode:readd, addr:48, wdata:618081166, rdata:0, slverr:0
# UVM_INFO ../uvc/env/apb_ram_scoreboard.sv(41) @ 14690: uvm_test_top.env.s [SCO] SLV ERROR during READ OP
# ----------------------------------------------------------------
# UVM_INFO ../uvc/env/apb_ram_driver.sv(78) @ 14710: uvm_test_top.env.a.d [DRV] mode:readd, addr:66, wdata:3257605076, rdata:0, slverr:0
# UVM_INFO ../uvc/env/apb_ram_scoreboard.sv(41) @ 14750: uvm_test_top.env.s [SCO] SLV ERROR during READ OP
# ----------------------------------------------------------------
# UVM_INFO ../uvc/env/apb_ram_driver.sv(78) @ 14770: uvm_test_top.env.a.d [DRV] mode:readd, addr:99, wdata:1662967228, rdata:0, slverr:0
# UVM_INFO ../uvc/env/apb_ram_scoreboard.sv(41) @ 14810: uvm_test_top.env.s [SCO] SLV ERROR during READ OP
# ----------------------------------------------------------------
# UVM_INFO ../uvc/env/apb_ram_driver.sv(78) @ 14830: uvm_test_top.env.a.d [DRV] mode:readd, addr:61, wdata:3518125057, rdata:0, slverr:0
# UVM_INFO ../uvc/env/apb_ram_scoreboard.sv(41) @ 14870: uvm_test_top.env.s [SCO] SLV ERROR during READ OP
# ----------------------------------------------------------------
# UVM_INFO ../uvc/env/apb_ram_driver.sv(78) @ 14890: uvm_test_top.env.a.d [DRV] mode:readd, addr:55, wdata:3476777684, rdata:0, slverr:0
# UVM_INFO ../uvc/env/apb_ram_scoreboard.sv(41) @ 14930: uvm_test_top.env.s [SCO] SLV ERROR during READ OP
# ----------------------------------------------------------------
# UVM_INFO ../uvc/env/apb_ram_driver.sv(78) @ 14950: uvm_test_top.env.a.d [DRV] mode:readd, addr:78, wdata:3831083377, rdata:0, slverr:0
# UVM_INFO ../uvc/env/apb_ram_scoreboard.sv(41) @ 14990: uvm_test_top.env.s [SCO] SLV ERROR during READ OP
# ----------------------------------------------------------------
# UVM_INFO ../uvc/env/apb_ram_driver.sv(78) @ 15010: uvm_test_top.env.a.d [DRV] mode:readd, addr:38, wdata:4192189047, rdata:0, slverr:0
# UVM_INFO ../uvc/env/apb_ram_scoreboard.sv(41) @ 15050: uvm_test_top.env.s [SCO] SLV ERROR during READ OP
# ----------------------------------------------------------------
# UVM_INFO ../uvc/env/apb_ram_driver.sv(78) @ 15070: uvm_test_top.env.a.d [DRV] mode:readd, addr:44, wdata:2463681163, rdata:0, slverr:0
# UVM_INFO ../uvc/env/apb_ram_scoreboard.sv(41) @ 15110: uvm_test_top.env.s [SCO] SLV ERROR during READ OP
# ----------------------------------------------------------------
# UVM_INFO ../uvc/env/apb_ram_driver.sv(78) @ 15130: uvm_test_top.env.a.d [DRV] mode:readd, addr:35, wdata:3648932716, rdata:0, slverr:0
# UVM_INFO ../uvc/env/apb_ram_scoreboard.sv(41) @ 15170: uvm_test_top.env.s [SCO] SLV ERROR during READ OP
# ----------------------------------------------------------------
# UVM_INFO ../uvc/env/apb_ram_driver.sv(78) @ 15190: uvm_test_top.env.a.d [DRV] mode:readd, addr:83, wdata:356788921, rdata:0, slverr:0
# UVM_INFO ../uvc/env/apb_ram_scoreboard.sv(41) @ 15230: uvm_test_top.env.s [SCO] SLV ERROR during READ OP
# ----------------------------------------------------------------
# UVM_INFO ../uvc/env/apb_ram_driver.sv(78) @ 15250: uvm_test_top.env.a.d [DRV] mode:readd, addr:52, wdata:2547012978, rdata:0, slverr:0
# UVM_INFO ../uvc/env/apb_ram_scoreboard.sv(41) @ 15290: uvm_test_top.env.s [SCO] SLV ERROR during READ OP
# ----------------------------------------------------------------
# UVM_INFO ../uvc/env/apb_ram_driver.sv(78) @ 15310: uvm_test_top.env.a.d [DRV] mode:readd, addr:97, wdata:1329980781, rdata:0, slverr:0
# UVM_INFO ../uvc/env/apb_ram_scoreboard.sv(41) @ 15350: uvm_test_top.env.s [SCO] SLV ERROR during READ OP
# ----------------------------------------------------------------
# UVM_INFO ../uvc/env/apb_ram_driver.sv(78) @ 15370: uvm_test_top.env.a.d [DRV] mode:readd, addr:59, wdata:1074660464, rdata:0, slverr:0
# UVM_INFO ../uvc/env/apb_ram_scoreboard.sv(41) @ 15410: uvm_test_top.env.s [SCO] SLV ERROR during READ OP
# ----------------------------------------------------------------
# UVM_INFO ../uvc/env/apb_ram_driver.sv(78) @ 15430: uvm_test_top.env.a.d [DRV] mode:readd, addr:47, wdata:2006491870, rdata:0, slverr:0
# UVM_INFO ../uvc/env/apb_ram_scoreboard.sv(41) @ 15470: uvm_test_top.env.s [SCO] SLV ERROR during READ OP
# ----------------------------------------------------------------
# UVM_INFO ../uvc/env/apb_ram_driver.sv(78) @ 15490: uvm_test_top.env.a.d [DRV] mode:readd, addr:82, wdata:1473610374, rdata:0, slverr:0
# UVM_INFO ../uvc/env/apb_ram_scoreboard.sv(41) @ 15530: uvm_test_top.env.s [SCO] SLV ERROR during READ OP
# ----------------------------------------------------------------
# UVM_INFO ../uvc/env/apb_ram_driver.sv(78) @ 15550: uvm_test_top.env.a.d [DRV] mode:readd, addr:32, wdata:3675634804, rdata:0, slverr:0
# UVM_INFO ../uvc/env/apb_ram_scoreboard.sv(41) @ 15590: uvm_test_top.env.s [SCO] SLV ERROR during READ OP
# ----------------------------------------------------------------
# UVM_INFO ../uvc/env/apb_ram_driver.sv(78) @ 15610: uvm_test_top.env.a.d [DRV] mode:readd, addr:33, wdata:423372607, rdata:0, slverr:0
# UVM_INFO ../uvc/env/apb_ram_scoreboard.sv(41) @ 15650: uvm_test_top.env.s [SCO] SLV ERROR during READ OP
# ----------------------------------------------------------------
# UVM_INFO ../uvc/env/apb_ram_driver.sv(78) @ 15670: uvm_test_top.env.a.d [DRV] mode:readd, addr:99, wdata:1940862873, rdata:0, slverr:0
# UVM_INFO ../uvc/env/apb_ram_scoreboard.sv(41) @ 15710: uvm_test_top.env.s [SCO] SLV ERROR during READ OP
# ----------------------------------------------------------------
# UVM_INFO ../uvc/env/apb_ram_driver.sv(78) @ 15730: uvm_test_top.env.a.d [DRV] mode:readd, addr:92, wdata:2155171696, rdata:0, slverr:0
# UVM_INFO ../uvc/env/apb_ram_scoreboard.sv(41) @ 15770: uvm_test_top.env.s [SCO] SLV ERROR during READ OP
# ----------------------------------------------------------------
# UVM_INFO ../uvc/env/apb_ram_driver.sv(78) @ 15790: uvm_test_top.env.a.d [DRV] mode:readd, addr:81, wdata:215577032, rdata:0, slverr:0
# UVM_INFO ../uvc/env/apb_ram_scoreboard.sv(41) @ 15830: uvm_test_top.env.s [SCO] SLV ERROR during READ OP
# ----------------------------------------------------------------
# UVM_INFO ../uvc/env/apb_ram_driver.sv(78) @ 15850: uvm_test_top.env.a.d [DRV] mode:readd, addr:87, wdata:1836484439, rdata:0, slverr:0
# UVM_INFO ../uvc/env/apb_ram_scoreboard.sv(41) @ 15890: uvm_test_top.env.s [SCO] SLV ERROR during READ OP
# ----------------------------------------------------------------
# UVM_INFO ../uvc/env/apb_ram_driver.sv(78) @ 15910: uvm_test_top.env.a.d [DRV] mode:readd, addr:47, wdata:2284292051, rdata:0, slverr:0
# UVM_INFO ../uvc/env/apb_ram_scoreboard.sv(41) @ 15950: uvm_test_top.env.s [SCO] SLV ERROR during READ OP
# ----------------------------------------------------------------
# UVM_INFO ../uvc/env/apb_ram_driver.sv(78) @ 15970: uvm_test_top.env.a.d [DRV] mode:readd, addr:73, wdata:3575331075, rdata:0, slverr:0
# UVM_INFO ../uvc/env/apb_ram_scoreboard.sv(41) @ 16010: uvm_test_top.env.s [SCO] SLV ERROR during READ OP
# ----------------------------------------------------------------
# UVM_INFO ../uvc/env/apb_ram_driver.sv(78) @ 16030: uvm_test_top.env.a.d [DRV] mode:readd, addr:86, wdata:1889047233, rdata:0, slverr:0
# UVM_INFO ../uvc/env/apb_ram_scoreboard.sv(41) @ 16070: uvm_test_top.env.s [SCO] SLV ERROR during READ OP
# ----------------------------------------------------------------
# UVM_INFO ../uvc/env/apb_ram_driver.sv(78) @ 16090: uvm_test_top.env.a.d [DRV] mode:readd, addr:89, wdata:357225797, rdata:0, slverr:0
# UVM_INFO ../uvc/env/apb_ram_scoreboard.sv(41) @ 16130: uvm_test_top.env.s [SCO] SLV ERROR during READ OP
# ----------------------------------------------------------------
# UVM_INFO ../uvc/env/apb_ram_driver.sv(78) @ 16150: uvm_test_top.env.a.d [DRV] mode:readd, addr:39, wdata:367611927, rdata:0, slverr:0
# UVM_INFO ../uvc/env/apb_ram_scoreboard.sv(41) @ 16190: uvm_test_top.env.s [SCO] SLV ERROR during READ OP
# ----------------------------------------------------------------
# UVM_INFO ../uvc/env/apb_ram_driver.sv(78) @ 16210: uvm_test_top.env.a.d [DRV] mode:readd, addr:64, wdata:117515580, rdata:0, slverr:0
# UVM_INFO ../uvc/env/apb_ram_scoreboard.sv(41) @ 16250: uvm_test_top.env.s [SCO] SLV ERROR during READ OP
# ----------------------------------------------------------------
# UVM_INFO ../uvc/env/apb_ram_driver.sv(78) @ 16270: uvm_test_top.env.a.d [DRV] mode:readd, addr:57, wdata:483861035, rdata:0, slverr:0
# UVM_INFO ../uvc/env/apb_ram_scoreboard.sv(41) @ 16310: uvm_test_top.env.s [SCO] SLV ERROR during READ OP
# ----------------------------------------------------------------
# UVM_INFO ../uvc/env/apb_ram_driver.sv(78) @ 16330: uvm_test_top.env.a.d [DRV] mode:readd, addr:70, wdata:3915576309, rdata:0, slverr:0
# UVM_INFO ../uvc/env/apb_ram_scoreboard.sv(41) @ 16370: uvm_test_top.env.s [SCO] SLV ERROR during READ OP
# ----------------------------------------------------------------
# UVM_INFO ../uvc/env/apb_ram_driver.sv(78) @ 16390: uvm_test_top.env.a.d [DRV] mode:readd, addr:96, wdata:175302509, rdata:0, slverr:0
# UVM_INFO ../uvc/env/apb_ram_scoreboard.sv(41) @ 16430: uvm_test_top.env.s [SCO] SLV ERROR during READ OP
# ----------------------------------------------------------------
# UVM_INFO ../uvc/env/apb_ram_driver.sv(78) @ 16450: uvm_test_top.env.a.d [DRV] mode:readd, addr:55, wdata:269179499, rdata:0, slverr:0
# UVM_INFO ../uvc/env/apb_ram_scoreboard.sv(41) @ 16490: uvm_test_top.env.s [SCO] SLV ERROR during READ OP
# ----------------------------------------------------------------
# UVM_INFO ../uvc/env/apb_ram_driver.sv(78) @ 16510: uvm_test_top.env.a.d [DRV] mode:readd, addr:77, wdata:3914234469, rdata:0, slverr:0
# UVM_INFO ../uvc/env/apb_ram_scoreboard.sv(41) @ 16550: uvm_test_top.env.s [SCO] SLV ERROR during READ OP
# ----------------------------------------------------------------
# UVM_INFO ../uvc/env/apb_ram_driver.sv(78) @ 16570: uvm_test_top.env.a.d [DRV] mode:readd, addr:77, wdata:3888811384, rdata:0, slverr:0
# UVM_INFO ../uvc/env/apb_ram_scoreboard.sv(41) @ 16610: uvm_test_top.env.s [SCO] SLV ERROR during READ OP
# ----------------------------------------------------------------
# UVM_INFO ../uvc/env/apb_ram_driver.sv(78) @ 16630: uvm_test_top.env.a.d [DRV] mode:readd, addr:43, wdata:3260137173, rdata:0, slverr:0
# UVM_INFO ../uvc/env/apb_ram_scoreboard.sv(41) @ 16670: uvm_test_top.env.s [SCO] SLV ERROR during READ OP
# ----------------------------------------------------------------
# UVM_INFO ../uvc/env/apb_ram_driver.sv(78) @ 16690: uvm_test_top.env.a.d [DRV] mode:readd, addr:56, wdata:2963198345, rdata:0, slverr:0
# UVM_INFO ../uvc/env/apb_ram_scoreboard.sv(41) @ 16730: uvm_test_top.env.s [SCO] SLV ERROR during READ OP
# ----------------------------------------------------------------
# UVM_INFO ../uvc/env/apb_ram_driver.sv(78) @ 16750: uvm_test_top.env.a.d [DRV] mode:readd, addr:57, wdata:832843957, rdata:0, slverr:0
# UVM_INFO ../uvc/env/apb_ram_scoreboard.sv(41) @ 16790: uvm_test_top.env.s [SCO] SLV ERROR during READ OP
# ----------------------------------------------------------------
# UVM_INFO ../uvc/env/apb_ram_driver.sv(78) @ 16810: uvm_test_top.env.a.d [DRV] mode:readd, addr:65, wdata:2753651396, rdata:0, slverr:0
# UVM_INFO ../uvc/env/apb_ram_scoreboard.sv(41) @ 16850: uvm_test_top.env.s [SCO] SLV ERROR during READ OP
# ----------------------------------------------------------------
# UVM_INFO ../uvc/env/apb_ram_driver.sv(78) @ 16870: uvm_test_top.env.a.d [DRV] mode:readd, addr:94, wdata:1804215672, rdata:0, slverr:0
# UVM_INFO ../uvc/env/apb_ram_scoreboard.sv(41) @ 16910: uvm_test_top.env.s [SCO] SLV ERROR during READ OP
# ----------------------------------------------------------------
# UVM_INFO ../uvc/env/apb_ram_driver.sv(78) @ 16930: uvm_test_top.env.a.d [DRV] mode:readd, addr:67, wdata:4236392080, rdata:0, slverr:0
# UVM_INFO ../uvc/env/apb_ram_scoreboard.sv(41) @ 16970: uvm_test_top.env.s [SCO] SLV ERROR during READ OP
# ----------------------------------------------------------------
# UVM_INFO ../uvc/env/apb_ram_driver.sv(78) @ 16990: uvm_test_top.env.a.d [DRV] mode:readd, addr:97, wdata:837281894, rdata:0, slverr:0
# UVM_INFO ../uvc/env/apb_ram_scoreboard.sv(41) @ 17030: uvm_test_top.env.s [SCO] SLV ERROR during READ OP
# ----------------------------------------------------------------
# UVM_INFO ../uvc/env/apb_ram_driver.sv(78) @ 17050: uvm_test_top.env.a.d [DRV] mode:readd, addr:61, wdata:3086327623, rdata:0, slverr:0
# UVM_INFO ../uvc/env/apb_ram_scoreboard.sv(41) @ 17090: uvm_test_top.env.s [SCO] SLV ERROR during READ OP
# ----------------------------------------------------------------
# UVM_INFO ../uvc/env/apb_ram_driver.sv(78) @ 17110: uvm_test_top.env.a.d [DRV] mode:readd, addr:97, wdata:2272011320, rdata:0, slverr:0
# UVM_INFO ../uvc/env/apb_ram_scoreboard.sv(41) @ 17150: uvm_test_top.env.s [SCO] SLV ERROR during READ OP
# ----------------------------------------------------------------
# UVM_INFO ../uvc/env/apb_ram_driver.sv(78) @ 17170: uvm_test_top.env.a.d [DRV] mode:readd, addr:39, wdata:1096051893, rdata:0, slverr:0
# UVM_INFO ../uvc/env/apb_ram_scoreboard.sv(41) @ 17210: uvm_test_top.env.s [SCO] SLV ERROR during READ OP
# ----------------------------------------------------------------
# UVM_INFO ../uvc/env/apb_ram_driver.sv(78) @ 17230: uvm_test_top.env.a.d [DRV] mode:readd, addr:88, wdata:3899270066, rdata:0, slverr:0
# UVM_INFO ../uvc/env/apb_ram_scoreboard.sv(41) @ 17270: uvm_test_top.env.s [SCO] SLV ERROR during READ OP
# ----------------------------------------------------------------
# UVM_INFO ../uvc/env/apb_ram_driver.sv(78) @ 17290: uvm_test_top.env.a.d [DRV] mode:readd, addr:80, wdata:3359922538, rdata:0, slverr:0
# UVM_INFO ../uvc/env/apb_ram_scoreboard.sv(41) @ 17330: uvm_test_top.env.s [SCO] SLV ERROR during READ OP
# ----------------------------------------------------------------
# UVM_INFO ../uvc/env/apb_ram_driver.sv(78) @ 17350: uvm_test_top.env.a.d [DRV] mode:readd, addr:62, wdata:4258298041, rdata:0, slverr:0
# UVM_INFO ../uvc/env/apb_ram_scoreboard.sv(41) @ 17390: uvm_test_top.env.s [SCO] SLV ERROR during READ OP
# ----------------------------------------------------------------
# UVM_INFO ../uvc/env/apb_ram_driver.sv(78) @ 17410: uvm_test_top.env.a.d [DRV] mode:readd, addr:49, wdata:2537799312, rdata:0, slverr:0
# UVM_INFO ../uvc/env/apb_ram_scoreboard.sv(41) @ 17450: uvm_test_top.env.s [SCO] SLV ERROR during READ OP
# ----------------------------------------------------------------
# UVM_INFO ../uvc/env/apb_ram_driver.sv(78) @ 17470: uvm_test_top.env.a.d [DRV] mode:readd, addr:44, wdata:3005824546, rdata:0, slverr:0
# UVM_INFO ../uvc/env/apb_ram_scoreboard.sv(41) @ 17510: uvm_test_top.env.s [SCO] SLV ERROR during READ OP
# ----------------------------------------------------------------
# UVM_INFO ../uvc/env/apb_ram_driver.sv(78) @ 17530: uvm_test_top.env.a.d [DRV] mode:readd, addr:45, wdata:293426876, rdata:0, slverr:0
# UVM_INFO ../uvc/env/apb_ram_scoreboard.sv(41) @ 17570: uvm_test_top.env.s [SCO] SLV ERROR during READ OP
# ----------------------------------------------------------------
# UVM_INFO ../uvc/env/apb_ram_driver.sv(78) @ 17590: uvm_test_top.env.a.d [DRV] mode:readd, addr:91, wdata:727175528, rdata:0, slverr:0
# UVM_INFO ../uvc/env/apb_ram_scoreboard.sv(41) @ 17630: uvm_test_top.env.s [SCO] SLV ERROR during READ OP
# ----------------------------------------------------------------
# UVM_INFO ../uvc/env/apb_ram_driver.sv(78) @ 17650: uvm_test_top.env.a.d [DRV] mode:readd, addr:32, wdata:3624710615, rdata:0, slverr:0
# UVM_INFO ../uvc/env/apb_ram_scoreboard.sv(41) @ 17690: uvm_test_top.env.s [SCO] SLV ERROR during READ OP
# ----------------------------------------------------------------
# UVM_INFO ../uvc/env/apb_ram_driver.sv(78) @ 17710: uvm_test_top.env.a.d [DRV] mode:readd, addr:46, wdata:1842938854, rdata:0, slverr:0
# UVM_INFO ../uvc/env/apb_ram_scoreboard.sv(41) @ 17750: uvm_test_top.env.s [SCO] SLV ERROR during READ OP
# ----------------------------------------------------------------
# UVM_INFO ../uvc/env/apb_ram_driver.sv(78) @ 17770: uvm_test_top.env.a.d [DRV] mode:readd, addr:36, wdata:1304552433, rdata:0, slverr:0
# UVM_INFO ../uvc/env/apb_ram_scoreboard.sv(41) @ 17810: uvm_test_top.env.s [SCO] SLV ERROR during READ OP
# ----------------------------------------------------------------
# UVM_INFO ../uvc/env/apb_ram_driver.sv(78) @ 17830: uvm_test_top.env.a.d [DRV] mode:readd, addr:81, wdata:3789747726, rdata:0, slverr:0
# UVM_INFO ../uvc/env/apb_ram_scoreboard.sv(41) @ 17870: uvm_test_top.env.s [SCO] SLV ERROR during READ OP
# ----------------------------------------------------------------
# UVM_INFO ../uvc/env/apb_ram_driver.sv(78) @ 17890: uvm_test_top.env.a.d [DRV] mode:readd, addr:64, wdata:3416633713, rdata:0, slverr:0
# UVM_INFO ../uvc/env/apb_ram_scoreboard.sv(41) @ 17930: uvm_test_top.env.s [SCO] SLV ERROR during READ OP
# ----------------------------------------------------------------
# UVM_INFO ../uvc/env/apb_ram_driver.sv(78) @ 17950: uvm_test_top.env.a.d [DRV] mode:readd, addr:98, wdata:1261947296, rdata:0, slverr:0
# UVM_INFO ../uvc/env/apb_ram_scoreboard.sv(41) @ 17990: uvm_test_top.env.s [SCO] SLV ERROR during READ OP
# ----------------------------------------------------------------
# UVM_INFO ../uvc/env/apb_ram_driver.sv(78) @ 18010: uvm_test_top.env.a.d [DRV] mode:readd, addr:58, wdata:1708811283, rdata:0, slverr:0
# UVM_INFO ../uvc/env/apb_ram_scoreboard.sv(41) @ 18050: uvm_test_top.env.s [SCO] SLV ERROR during READ OP
# ----------------------------------------------------------------
# UVM_INFO ../uvc/env/apb_ram_driver.sv(78) @ 18070: uvm_test_top.env.a.d [DRV] mode:readd, addr:40, wdata:1648727672, rdata:0, slverr:0
# UVM_INFO ../uvc/env/apb_ram_scoreboard.sv(41) @ 18110: uvm_test_top.env.s [SCO] SLV ERROR during READ OP
# ----------------------------------------------------------------
# UVM_INFO verilog_src/uvm-1.1d/src/base/uvm_objection.svh(1267) @ 18110: reporter [TEST_DONE] 'run' phase is ready to proceed to the 'extract' phase
# UVM_INFO ../uvc/tests/base_test.sv(40) @ 18110: uvm_test_top [BASE_TEST] *** TEST PASSED ***
# 
# --- UVM Report Summary ---
# 
# ** Report counts by severity
# UVM_INFO :  616
# UVM_WARNING :    0
# UVM_ERROR :    0
# UVM_FATAL :    0
# ** Report counts by id
# [BASE_TEST]     1
# [DRV]   305
# [Questa UVM]     2
# [RNTST]     1
# [SCO]   305
# [TEST_DONE]     1
# [UVMTOP]     1
# ** Note: $finish    : D:/questasim_b_install/win64/../verilog_src/uvm-1.1d/src/base/uvm_root.svh(430)
#    Time: 18110 ns  Iteration: 62  Instance: /top
# Saving coverage database on exit...
# End time: 16:34:43 on Dec 23,2025, Elapsed time: 0:00:10
# Errors: 0, Warnings: 0
