# vsim -c -coverage top "+UVM_TESTNAME=wr_rd_test" -voptargs="+acc" -l logs/wr_rd_test.log -do "coverage save -onexit cov/wr_rd_test.ucdb; run -all; quit -f" 
# Start time: 16:34:14 on Dec 23,2025
# ** Note: (vsim-8009) Loading existing optimized design _opt
# //  Questa Sim-64
# //  Version 10.7c win64 Aug 18 2018
# //
# //  Copyright 1991-2018 Mentor Graphics Corporation
# //  All Rights Reserved.
# //
# //  QuestaSim and its associated documentation contain trade
# //  secrets and commercial or financial information that are the property of
# //  Mentor Graphics Corporation and are privileged, confidential,
# //  and exempt from disclosure under the Freedom of Information Act,
# //  5 U.S.C. Section 552. Furthermore, this information
# //  is prohibited from disclosure under the Trade Secrets Act,
# //  18 U.S.C. Section 1905.
# //
# Loading sv_std.std
# Loading work.apb_if(fast)
# Loading mtiUvm.uvm_pkg
# Loading work.apb_ram_pkg(fast)
# Loading work.top_sv_unit(fast)
# Loading work.top(fast)
# Loading work.apb_if(fast)
# Loading work.apb_ram(fast)
# Loading mtiUvm.questa_uvm_pkg(fast)
# Loading D:/questasim_b_install/uvm-1.1d\win64\uvm_dpi.dll
# coverage save -onexit cov/wr_rd_test.ucdb
#  run -all
# ----------------------------------------------------------------
# UVM-1.1d
# (C) 2007-2013 Mentor Graphics Corporation
# (C) 2007-2013 Cadence Design Systems, Inc.
# (C) 2006-2013 Synopsys, Inc.
# (C) 2011-2013 Cypress Semiconductor Corp.
# ----------------------------------------------------------------
# 
#   ***********       IMPORTANT RELEASE NOTES         ************
# 
#   You are using a version of the UVM library that has been compiled
#   with `UVM_NO_DEPRECATED undefined.
#   See http://www.eda.org/svdb/view.php?id=3313 for more details.
# 
#   You are using a version of the UVM library that has been compiled
#   with `UVM_OBJECT_MUST_HAVE_CONSTRUCTOR undefined.
#   See http://www.eda.org/svdb/view.php?id=3770 for more details.
# 
#       (Specify +UVM_NO_RELNOTES to turn off this notice)
# 
# UVM_INFO verilog_src/questa_uvm_pkg-1.2/src/questa_uvm_pkg.sv(215) @ 0: reporter [Questa UVM] QUESTA_UVM-1.2.3
# UVM_INFO verilog_src/questa_uvm_pkg-1.2/src/questa_uvm_pkg.sv(216) @ 0: reporter [Questa UVM]  questa_uvm::init(+struct)
# UVM_INFO @ 0: reporter [RNTST] Running test wr_rd_test...
# UVM_INFO @ 0: reporter [UVMTOP] UVM testbench topology:
# --------------------------------------------------------------
# Name                       Type                    Size  Value
# --------------------------------------------------------------
# uvm_test_top               wr_rd_test              -     @471 
#   env                      apb_ram_env             -     @478 
#     a                      apb_ram_agent           -     @485 
#       d                    apb_ram_driver          -     @523 
#         rsp_port           uvm_analysis_port       -     @538 
#         seq_item_port      uvm_seq_item_pull_port  -     @530 
#       m                    apb_ram_monitor         -     @516 
#         item_send_port     uvm_analysis_port       -     @664 
#       seqr                 uvm_sequencer           -     @546 
#         rsp_export         uvm_analysis_export     -     @553 
#         seq_item_export    uvm_seq_item_pull_imp   -     @647 
#         arbitration_queue  array                   0     -    
#         lock_queue         array                   0     -    
#         num_last_reqs      integral                32    'd1  
#         num_last_rsps      integral                32    'd1  
#     cov                    apb_ram_coverage        -     @499 
#       analysis_imp         uvm_analysis_imp        -     @506 
#     s                      apb_ram_scoreboard      -     @492 
#       item_recv_imp        uvm_analysis_imp        -     @678 
# --------------------------------------------------------------
# 
# UVM_INFO ../uvc/env/apb_ram_driver.sv(32) @ 0: uvm_test_top.env.a.d [DRV] System Reset : Start of Simulation
# UVM_INFO ../uvc/env/apb_ram_driver.sv(32) @ 10: uvm_test_top.env.a.d [DRV] System Reset : Start of Simulation
# UVM_INFO ../uvc/env/apb_ram_scoreboard.sv(23) @ 10: uvm_test_top.env.s [SCO] SYSTEM RESET DETECTED
# ----------------------------------------------------------------
# UVM_INFO ../uvc/env/apb_ram_scoreboard.sv(23) @ 30: uvm_test_top.env.s [SCO] SYSTEM RESET DETECTED
# ----------------------------------------------------------------
# UVM_INFO ../uvc/env/apb_ram_driver.sv(32) @ 30: uvm_test_top.env.a.d [DRV] System Reset : Start of Simulation
# UVM_INFO ../uvc/env/apb_ram_driver.sv(32) @ 50: uvm_test_top.env.a.d [DRV] System Reset : Start of Simulation
# UVM_INFO ../uvc/env/apb_ram_scoreboard.sv(23) @ 50: uvm_test_top.env.s [SCO] SYSTEM RESET DETECTED
# ----------------------------------------------------------------
# UVM_INFO ../uvc/env/apb_ram_scoreboard.sv(23) @ 70: uvm_test_top.env.s [SCO] SYSTEM RESET DETECTED
# ----------------------------------------------------------------
# UVM_INFO ../uvc/env/apb_ram_driver.sv(32) @ 70: uvm_test_top.env.a.d [DRV] System Reset : Start of Simulation
# UVM_INFO ../uvc/env/apb_ram_scoreboard.sv(23) @ 90: uvm_test_top.env.s [SCO] SYSTEM RESET DETECTED
# ----------------------------------------------------------------
# UVM_INFO ../uvc/env/apb_ram_driver.sv(64) @ 110: uvm_test_top.env.a.d [DRV] mode:writed, addr:9, wdata:3777248807, rdata:0, slverr:0
# UVM_INFO ../uvc/env/apb_ram_scoreboard.sv(34) @ 170: uvm_test_top.env.s [SCO] DATA WRITE OP  addr:9, wdata:3777248807 arr_wr:3777248807
# ----------------------------------------------------------------
# UVM_INFO ../uvc/env/apb_ram_driver.sv(78) @ 190: uvm_test_top.env.a.d [DRV] mode:readd, addr:6, wdata:2285552022, rdata:0, slverr:0
# UVM_INFO ../uvc/env/apb_ram_scoreboard.sv(47) @ 230: uvm_test_top.env.s [SCO] DATA MATCHED : addr:6, rdata:0
# ----------------------------------------------------------------
# UVM_INFO ../uvc/env/apb_ram_driver.sv(64) @ 250: uvm_test_top.env.a.d [DRV] mode:writed, addr:19, wdata:4281818903, rdata:0, slverr:0
# UVM_INFO ../uvc/env/apb_ram_scoreboard.sv(34) @ 290: uvm_test_top.env.s [SCO] DATA WRITE OP  addr:19, wdata:4281818903 arr_wr:4281818903
# ----------------------------------------------------------------
# UVM_INFO ../uvc/env/apb_ram_driver.sv(78) @ 310: uvm_test_top.env.a.d [DRV] mode:readd, addr:20, wdata:1051481594, rdata:0, slverr:0
# UVM_INFO ../uvc/env/apb_ram_scoreboard.sv(47) @ 350: uvm_test_top.env.s [SCO] DATA MATCHED : addr:20, rdata:0
# ----------------------------------------------------------------
# UVM_INFO ../uvc/env/apb_ram_driver.sv(64) @ 370: uvm_test_top.env.a.d [DRV] mode:writed, addr:31, wdata:1430793613, rdata:0, slverr:0
# UVM_INFO ../uvc/env/apb_ram_scoreboard.sv(34) @ 410: uvm_test_top.env.s [SCO] DATA WRITE OP  addr:31, wdata:1430793613 arr_wr:1430793613
# ----------------------------------------------------------------
# UVM_INFO ../uvc/env/apb_ram_driver.sv(78) @ 430: uvm_test_top.env.a.d [DRV] mode:readd, addr:22, wdata:3171452607, rdata:0, slverr:0
# UVM_INFO ../uvc/env/apb_ram_scoreboard.sv(47) @ 470: uvm_test_top.env.s [SCO] DATA MATCHED : addr:22, rdata:0
# ----------------------------------------------------------------
# UVM_INFO ../uvc/env/apb_ram_driver.sv(64) @ 490: uvm_test_top.env.a.d [DRV] mode:writed, addr:0, wdata:2337079852, rdata:0, slverr:0
# UVM_INFO ../uvc/env/apb_ram_scoreboard.sv(34) @ 530: uvm_test_top.env.s [SCO] DATA WRITE OP  addr:0, wdata:2337079852 arr_wr:2337079852
# ----------------------------------------------------------------
# UVM_INFO ../uvc/env/apb_ram_driver.sv(78) @ 550: uvm_test_top.env.a.d [DRV] mode:readd, addr:4, wdata:3353941321, rdata:0, slverr:0
# UVM_INFO ../uvc/env/apb_ram_scoreboard.sv(47) @ 590: uvm_test_top.env.s [SCO] DATA MATCHED : addr:4, rdata:0
# ----------------------------------------------------------------
# UVM_INFO ../uvc/env/apb_ram_driver.sv(64) @ 610: uvm_test_top.env.a.d [DRV] mode:writed, addr:15, wdata:2729742768, rdata:0, slverr:0
# UVM_INFO ../uvc/env/apb_ram_scoreboard.sv(34) @ 650: uvm_test_top.env.s [SCO] DATA WRITE OP  addr:15, wdata:2729742768 arr_wr:2729742768
# ----------------------------------------------------------------
# UVM_INFO ../uvc/env/apb_ram_driver.sv(78) @ 670: uvm_test_top.env.a.d [DRV] mode:readd, addr:2, wdata:2528254870, rdata:0, slverr:0
# UVM_INFO ../uvc/env/apb_ram_scoreboard.sv(47) @ 710: uvm_test_top.env.s [SCO] DATA MATCHED : addr:2, rdata:0
# ----------------------------------------------------------------
# UVM_INFO ../uvc/env/apb_ram_driver.sv(64) @ 730: uvm_test_top.env.a.d [DRV] mode:writed, addr:4, wdata:2518359749, rdata:0, slverr:0
# UVM_INFO ../uvc/env/apb_ram_scoreboard.sv(34) @ 770: uvm_test_top.env.s [SCO] DATA WRITE OP  addr:4, wdata:2518359749 arr_wr:2518359749
# ----------------------------------------------------------------
# UVM_INFO ../uvc/env/apb_ram_driver.sv(78) @ 790: uvm_test_top.env.a.d [DRV] mode:readd, addr:25, wdata:1888893185, rdata:0, slverr:0
# UVM_INFO ../uvc/env/apb_ram_scoreboard.sv(47) @ 830: uvm_test_top.env.s [SCO] DATA MATCHED : addr:25, rdata:0
# ----------------------------------------------------------------
# UVM_INFO ../uvc/env/apb_ram_driver.sv(64) @ 850: uvm_test_top.env.a.d [DRV] mode:writed, addr:14, wdata:2912452960, rdata:0, slverr:0
# UVM_INFO ../uvc/env/apb_ram_scoreboard.sv(34) @ 890: uvm_test_top.env.s [SCO] DATA WRITE OP  addr:14, wdata:2912452960 arr_wr:2912452960
# ----------------------------------------------------------------
# UVM_INFO ../uvc/env/apb_ram_driver.sv(78) @ 910: uvm_test_top.env.a.d [DRV] mode:readd, addr:6, wdata:4191012750, rdata:0, slverr:0
# UVM_INFO ../uvc/env/apb_ram_scoreboard.sv(47) @ 950: uvm_test_top.env.s [SCO] DATA MATCHED : addr:6, rdata:0
# ----------------------------------------------------------------
# UVM_INFO ../uvc/env/apb_ram_driver.sv(64) @ 970: uvm_test_top.env.a.d [DRV] mode:writed, addr:18, wdata:3892367503, rdata:0, slverr:0
# UVM_INFO ../uvc/env/apb_ram_scoreboard.sv(34) @ 1010: uvm_test_top.env.s [SCO] DATA WRITE OP  addr:18, wdata:3892367503 arr_wr:3892367503
# ----------------------------------------------------------------
# UVM_INFO ../uvc/env/apb_ram_driver.sv(78) @ 1030: uvm_test_top.env.a.d [DRV] mode:readd, addr:13, wdata:1981648891, rdata:0, slverr:0
# UVM_INFO ../uvc/env/apb_ram_scoreboard.sv(47) @ 1070: uvm_test_top.env.s [SCO] DATA MATCHED : addr:13, rdata:0
# ----------------------------------------------------------------
# UVM_INFO ../uvc/env/apb_ram_driver.sv(64) @ 1090: uvm_test_top.env.a.d [DRV] mode:writed, addr:6, wdata:48946881, rdata:0, slverr:0
# UVM_INFO ../uvc/env/apb_ram_scoreboard.sv(34) @ 1130: uvm_test_top.env.s [SCO] DATA WRITE OP  addr:6, wdata:48946881 arr_wr:48946881
# ----------------------------------------------------------------
# UVM_INFO ../uvc/env/apb_ram_driver.sv(78) @ 1150: uvm_test_top.env.a.d [DRV] mode:readd, addr:28, wdata:3254385158, rdata:0, slverr:0
# UVM_INFO ../uvc/env/apb_ram_scoreboard.sv(47) @ 1190: uvm_test_top.env.s [SCO] DATA MATCHED : addr:28, rdata:0
# ----------------------------------------------------------------
# UVM_INFO ../uvc/env/apb_ram_driver.sv(64) @ 1210: uvm_test_top.env.a.d [DRV] mode:writed, addr:6, wdata:3524547497, rdata:0, slverr:0
# UVM_INFO ../uvc/env/apb_ram_scoreboard.sv(34) @ 1250: uvm_test_top.env.s [SCO] DATA WRITE OP  addr:6, wdata:3524547497 arr_wr:3524547497
# ----------------------------------------------------------------
# UVM_INFO ../uvc/env/apb_ram_driver.sv(78) @ 1270: uvm_test_top.env.a.d [DRV] mode:readd, addr:8, wdata:3483282630, rdata:0, slverr:0
# UVM_INFO ../uvc/env/apb_ram_scoreboard.sv(47) @ 1310: uvm_test_top.env.s [SCO] DATA MATCHED : addr:8, rdata:0
# ----------------------------------------------------------------
# UVM_INFO ../uvc/env/apb_ram_driver.sv(64) @ 1330: uvm_test_top.env.a.d [DRV] mode:writed, addr:21, wdata:2414337454, rdata:0, slverr:0
# UVM_INFO ../uvc/env/apb_ram_scoreboard.sv(34) @ 1370: uvm_test_top.env.s [SCO] DATA WRITE OP  addr:21, wdata:2414337454 arr_wr:2414337454
# ----------------------------------------------------------------
# UVM_INFO ../uvc/env/apb_ram_driver.sv(78) @ 1390: uvm_test_top.env.a.d [DRV] mode:readd, addr:0, wdata:114161314, rdata:0, slverr:0
# UVM_INFO ../uvc/env/apb_ram_scoreboard.sv(47) @ 1430: uvm_test_top.env.s [SCO] DATA MATCHED : addr:0, rdata:2337079852
# ----------------------------------------------------------------
# UVM_INFO ../uvc/env/apb_ram_driver.sv(64) @ 1450: uvm_test_top.env.a.d [DRV] mode:writed, addr:22, wdata:2384080836, rdata:0, slverr:0
# UVM_INFO ../uvc/env/apb_ram_scoreboard.sv(34) @ 1490: uvm_test_top.env.s [SCO] DATA WRITE OP  addr:22, wdata:2384080836 arr_wr:2384080836
# ----------------------------------------------------------------
# UVM_INFO ../uvc/env/apb_ram_driver.sv(78) @ 1510: uvm_test_top.env.a.d [DRV] mode:readd, addr:3, wdata:616727898, rdata:0, slverr:0
# UVM_INFO ../uvc/env/apb_ram_scoreboard.sv(47) @ 1550: uvm_test_top.env.s [SCO] DATA MATCHED : addr:3, rdata:0
# ----------------------------------------------------------------
# UVM_INFO ../uvc/env/apb_ram_driver.sv(64) @ 1570: uvm_test_top.env.a.d [DRV] mode:writed, addr:18, wdata:4230033719, rdata:0, slverr:0
# UVM_INFO ../uvc/env/apb_ram_scoreboard.sv(34) @ 1610: uvm_test_top.env.s [SCO] DATA WRITE OP  addr:18, wdata:4230033719 arr_wr:4230033719
# ----------------------------------------------------------------
# UVM_INFO ../uvc/env/apb_ram_driver.sv(78) @ 1630: uvm_test_top.env.a.d [DRV] mode:readd, addr:24, wdata:3617292467, rdata:0, slverr:0
# UVM_INFO ../uvc/env/apb_ram_scoreboard.sv(47) @ 1670: uvm_test_top.env.s [SCO] DATA MATCHED : addr:24, rdata:0
# ----------------------------------------------------------------
# UVM_INFO ../uvc/env/apb_ram_driver.sv(64) @ 1690: uvm_test_top.env.a.d [DRV] mode:writed, addr:14, wdata:938073799, rdata:0, slverr:0
# UVM_INFO ../uvc/env/apb_ram_scoreboard.sv(34) @ 1730: uvm_test_top.env.s [SCO] DATA WRITE OP  addr:14, wdata:938073799 arr_wr:938073799
# ----------------------------------------------------------------
# UVM_INFO ../uvc/env/apb_ram_driver.sv(78) @ 1750: uvm_test_top.env.a.d [DRV] mode:readd, addr:25, wdata:3644635849, rdata:0, slverr:0
# UVM_INFO ../uvc/env/apb_ram_scoreboard.sv(47) @ 1790: uvm_test_top.env.s [SCO] DATA MATCHED : addr:25, rdata:0
# ----------------------------------------------------------------
# UVM_INFO ../uvc/env/apb_ram_driver.sv(64) @ 1810: uvm_test_top.env.a.d [DRV] mode:writed, addr:10, wdata:2295673994, rdata:0, slverr:0
# UVM_INFO ../uvc/env/apb_ram_scoreboard.sv(34) @ 1850: uvm_test_top.env.s [SCO] DATA WRITE OP  addr:10, wdata:2295673994 arr_wr:2295673994
# ----------------------------------------------------------------
# UVM_INFO ../uvc/env/apb_ram_driver.sv(78) @ 1870: uvm_test_top.env.a.d [DRV] mode:readd, addr:5, wdata:4236171247, rdata:0, slverr:0
# UVM_INFO ../uvc/env/apb_ram_scoreboard.sv(47) @ 1910: uvm_test_top.env.s [SCO] DATA MATCHED : addr:5, rdata:0
# ----------------------------------------------------------------
# UVM_INFO ../uvc/env/apb_ram_driver.sv(64) @ 1930: uvm_test_top.env.a.d [DRV] mode:writed, addr:30, wdata:812920989, rdata:0, slverr:0
# UVM_INFO ../uvc/env/apb_ram_scoreboard.sv(34) @ 1970: uvm_test_top.env.s [SCO] DATA WRITE OP  addr:30, wdata:812920989 arr_wr:812920989
# ----------------------------------------------------------------
# UVM_INFO ../uvc/env/apb_ram_driver.sv(78) @ 1990: uvm_test_top.env.a.d [DRV] mode:readd, addr:14, wdata:842572445, rdata:0, slverr:0
# UVM_INFO ../uvc/env/apb_ram_scoreboard.sv(47) @ 2030: uvm_test_top.env.s [SCO] DATA MATCHED : addr:14, rdata:938073799
# ----------------------------------------------------------------
# UVM_INFO ../uvc/env/apb_ram_driver.sv(64) @ 2050: uvm_test_top.env.a.d [DRV] mode:writed, addr:20, wdata:1408008632, rdata:0, slverr:0
# UVM_INFO ../uvc/env/apb_ram_scoreboard.sv(34) @ 2090: uvm_test_top.env.s [SCO] DATA WRITE OP  addr:20, wdata:1408008632 arr_wr:1408008632
# ----------------------------------------------------------------
# UVM_INFO ../uvc/env/apb_ram_driver.sv(78) @ 2110: uvm_test_top.env.a.d [DRV] mode:readd, addr:21, wdata:1728061235, rdata:0, slverr:0
# UVM_INFO ../uvc/env/apb_ram_scoreboard.sv(47) @ 2150: uvm_test_top.env.s [SCO] DATA MATCHED : addr:21, rdata:2414337454
# ----------------------------------------------------------------
# UVM_INFO ../uvc/env/apb_ram_driver.sv(64) @ 2170: uvm_test_top.env.a.d [DRV] mode:writed, addr:13, wdata:2370165681, rdata:0, slverr:0
# UVM_INFO ../uvc/env/apb_ram_scoreboard.sv(34) @ 2210: uvm_test_top.env.s [SCO] DATA WRITE OP  addr:13, wdata:2370165681 arr_wr:2370165681
# ----------------------------------------------------------------
# UVM_INFO ../uvc/env/apb_ram_driver.sv(78) @ 2230: uvm_test_top.env.a.d [DRV] mode:readd, addr:10, wdata:3534544320, rdata:0, slverr:0
# UVM_INFO ../uvc/env/apb_ram_scoreboard.sv(47) @ 2270: uvm_test_top.env.s [SCO] DATA MATCHED : addr:10, rdata:2295673994
# ----------------------------------------------------------------
# UVM_INFO ../uvc/env/apb_ram_driver.sv(64) @ 2290: uvm_test_top.env.a.d [DRV] mode:writed, addr:27, wdata:2442776198, rdata:0, slverr:0
# UVM_INFO ../uvc/env/apb_ram_scoreboard.sv(34) @ 2330: uvm_test_top.env.s [SCO] DATA WRITE OP  addr:27, wdata:2442776198 arr_wr:2442776198
# ----------------------------------------------------------------
# UVM_INFO ../uvc/env/apb_ram_driver.sv(78) @ 2350: uvm_test_top.env.a.d [DRV] mode:readd, addr:18, wdata:2614382870, rdata:0, slverr:0
# UVM_INFO ../uvc/env/apb_ram_scoreboard.sv(47) @ 2390: uvm_test_top.env.s [SCO] DATA MATCHED : addr:18, rdata:4230033719
# ----------------------------------------------------------------
# UVM_INFO ../uvc/env/apb_ram_driver.sv(64) @ 2410: uvm_test_top.env.a.d [DRV] mode:writed, addr:12, wdata:1814544769, rdata:0, slverr:0
# UVM_INFO ../uvc/env/apb_ram_scoreboard.sv(34) @ 2450: uvm_test_top.env.s [SCO] DATA WRITE OP  addr:12, wdata:1814544769 arr_wr:1814544769
# ----------------------------------------------------------------
# UVM_INFO ../uvc/env/apb_ram_driver.sv(78) @ 2470: uvm_test_top.env.a.d [DRV] mode:readd, addr:16, wdata:2646141795, rdata:0, slverr:0
# UVM_INFO ../uvc/env/apb_ram_scoreboard.sv(47) @ 2510: uvm_test_top.env.s [SCO] DATA MATCHED : addr:16, rdata:0
# ----------------------------------------------------------------
# UVM_INFO ../uvc/env/apb_ram_driver.sv(64) @ 2530: uvm_test_top.env.a.d [DRV] mode:writed, addr:14, wdata:1225673380, rdata:0, slverr:0
# UVM_INFO ../uvc/env/apb_ram_scoreboard.sv(34) @ 2570: uvm_test_top.env.s [SCO] DATA WRITE OP  addr:14, wdata:1225673380 arr_wr:1225673380
# ----------------------------------------------------------------
# UVM_INFO ../uvc/env/apb_ram_driver.sv(78) @ 2590: uvm_test_top.env.a.d [DRV] mode:readd, addr:13, wdata:1967671799, rdata:0, slverr:0
# UVM_INFO ../uvc/env/apb_ram_scoreboard.sv(47) @ 2630: uvm_test_top.env.s [SCO] DATA MATCHED : addr:13, rdata:2370165681
# ----------------------------------------------------------------
# UVM_INFO ../uvc/env/apb_ram_driver.sv(64) @ 2650: uvm_test_top.env.a.d [DRV] mode:writed, addr:28, wdata:2412323114, rdata:0, slverr:0
# UVM_INFO ../uvc/env/apb_ram_scoreboard.sv(34) @ 2690: uvm_test_top.env.s [SCO] DATA WRITE OP  addr:28, wdata:2412323114 arr_wr:2412323114
# ----------------------------------------------------------------
# UVM_INFO ../uvc/env/apb_ram_driver.sv(78) @ 2710: uvm_test_top.env.a.d [DRV] mode:readd, addr:14, wdata:1496865130, rdata:0, slverr:0
# UVM_INFO ../uvc/env/apb_ram_scoreboard.sv(47) @ 2750: uvm_test_top.env.s [SCO] DATA MATCHED : addr:14, rdata:1225673380
# ----------------------------------------------------------------
# UVM_INFO ../uvc/env/apb_ram_driver.sv(64) @ 2770: uvm_test_top.env.a.d [DRV] mode:writed, addr:6, wdata:3007791890, rdata:0, slverr:0
# UVM_INFO ../uvc/env/apb_ram_scoreboard.sv(34) @ 2810: uvm_test_top.env.s [SCO] DATA WRITE OP  addr:6, wdata:3007791890 arr_wr:3007791890
# ----------------------------------------------------------------
# UVM_INFO ../uvc/env/apb_ram_driver.sv(78) @ 2830: uvm_test_top.env.a.d [DRV] mode:readd, addr:15, wdata:1654212079, rdata:0, slverr:0
# UVM_INFO ../uvc/env/apb_ram_scoreboard.sv(47) @ 2870: uvm_test_top.env.s [SCO] DATA MATCHED : addr:15, rdata:2729742768
# ----------------------------------------------------------------
# UVM_INFO ../uvc/env/apb_ram_driver.sv(64) @ 2890: uvm_test_top.env.a.d [DRV] mode:writed, addr:4, wdata:3373696266, rdata:0, slverr:0
# UVM_INFO ../uvc/env/apb_ram_scoreboard.sv(34) @ 2930: uvm_test_top.env.s [SCO] DATA WRITE OP  addr:4, wdata:3373696266 arr_wr:3373696266
# ----------------------------------------------------------------
# UVM_INFO ../uvc/env/apb_ram_driver.sv(78) @ 2950: uvm_test_top.env.a.d [DRV] mode:readd, addr:15, wdata:302863272, rdata:0, slverr:0
# UVM_INFO ../uvc/env/apb_ram_scoreboard.sv(47) @ 2990: uvm_test_top.env.s [SCO] DATA MATCHED : addr:15, rdata:2729742768
# ----------------------------------------------------------------
# UVM_INFO ../uvc/env/apb_ram_driver.sv(64) @ 3010: uvm_test_top.env.a.d [DRV] mode:writed, addr:9, wdata:2912410914, rdata:0, slverr:0
# UVM_INFO ../uvc/env/apb_ram_scoreboard.sv(34) @ 3050: uvm_test_top.env.s [SCO] DATA WRITE OP  addr:9, wdata:2912410914 arr_wr:2912410914
# ----------------------------------------------------------------
# UVM_INFO ../uvc/env/apb_ram_driver.sv(78) @ 3070: uvm_test_top.env.a.d [DRV] mode:readd, addr:14, wdata:1966490993, rdata:0, slverr:0
# UVM_INFO ../uvc/env/apb_ram_scoreboard.sv(47) @ 3110: uvm_test_top.env.s [SCO] DATA MATCHED : addr:14, rdata:1225673380
# ----------------------------------------------------------------
# UVM_INFO ../uvc/env/apb_ram_driver.sv(64) @ 3130: uvm_test_top.env.a.d [DRV] mode:writed, addr:15, wdata:709999995, rdata:0, slverr:0
# UVM_INFO ../uvc/env/apb_ram_scoreboard.sv(34) @ 3170: uvm_test_top.env.s [SCO] DATA WRITE OP  addr:15, wdata:709999995 arr_wr:709999995
# ----------------------------------------------------------------
# UVM_INFO ../uvc/env/apb_ram_driver.sv(78) @ 3190: uvm_test_top.env.a.d [DRV] mode:readd, addr:6, wdata:1381038493, rdata:0, slverr:0
# UVM_INFO ../uvc/env/apb_ram_scoreboard.sv(47) @ 3230: uvm_test_top.env.s [SCO] DATA MATCHED : addr:6, rdata:3007791890
# ----------------------------------------------------------------
# UVM_INFO ../uvc/env/apb_ram_driver.sv(64) @ 3250: uvm_test_top.env.a.d [DRV] mode:writed, addr:15, wdata:4144100939, rdata:0, slverr:0
# UVM_INFO ../uvc/env/apb_ram_scoreboard.sv(34) @ 3290: uvm_test_top.env.s [SCO] DATA WRITE OP  addr:15, wdata:4144100939 arr_wr:4144100939
# ----------------------------------------------------------------
# UVM_INFO ../uvc/env/apb_ram_driver.sv(78) @ 3310: uvm_test_top.env.a.d [DRV] mode:readd, addr:27, wdata:892512377, rdata:0, slverr:0
# UVM_INFO ../uvc/env/apb_ram_scoreboard.sv(47) @ 3350: uvm_test_top.env.s [SCO] DATA MATCHED : addr:27, rdata:2442776198
# ----------------------------------------------------------------
# UVM_INFO ../uvc/env/apb_ram_driver.sv(64) @ 3370: uvm_test_top.env.a.d [DRV] mode:writed, addr:10, wdata:3578429675, rdata:0, slverr:0
# UVM_INFO ../uvc/env/apb_ram_scoreboard.sv(34) @ 3410: uvm_test_top.env.s [SCO] DATA WRITE OP  addr:10, wdata:3578429675 arr_wr:3578429675
# ----------------------------------------------------------------
# UVM_INFO ../uvc/env/apb_ram_driver.sv(78) @ 3430: uvm_test_top.env.a.d [DRV] mode:readd, addr:19, wdata:2582529987, rdata:0, slverr:0
# UVM_INFO ../uvc/env/apb_ram_scoreboard.sv(47) @ 3470: uvm_test_top.env.s [SCO] DATA MATCHED : addr:19, rdata:4281818903
# ----------------------------------------------------------------
# UVM_INFO ../uvc/env/apb_ram_driver.sv(64) @ 3490: uvm_test_top.env.a.d [DRV] mode:writed, addr:31, wdata:3985947039, rdata:0, slverr:0
# UVM_INFO ../uvc/env/apb_ram_scoreboard.sv(34) @ 3530: uvm_test_top.env.s [SCO] DATA WRITE OP  addr:31, wdata:3985947039 arr_wr:3985947039
# ----------------------------------------------------------------
# UVM_INFO ../uvc/env/apb_ram_driver.sv(78) @ 3550: uvm_test_top.env.a.d [DRV] mode:readd, addr:29, wdata:2766433457, rdata:0, slverr:0
# UVM_INFO ../uvc/env/apb_ram_scoreboard.sv(47) @ 3590: uvm_test_top.env.s [SCO] DATA MATCHED : addr:29, rdata:0
# ----------------------------------------------------------------
# UVM_INFO ../uvc/env/apb_ram_driver.sv(64) @ 3610: uvm_test_top.env.a.d [DRV] mode:writed, addr:10, wdata:4007790511, rdata:0, slverr:0
# UVM_INFO ../uvc/env/apb_ram_scoreboard.sv(34) @ 3650: uvm_test_top.env.s [SCO] DATA WRITE OP  addr:10, wdata:4007790511 arr_wr:4007790511
# ----------------------------------------------------------------
# UVM_INFO ../uvc/env/apb_ram_driver.sv(78) @ 3670: uvm_test_top.env.a.d [DRV] mode:readd, addr:21, wdata:736522590, rdata:0, slverr:0
# UVM_INFO ../uvc/env/apb_ram_scoreboard.sv(47) @ 3710: uvm_test_top.env.s [SCO] DATA MATCHED : addr:21, rdata:2414337454
# ----------------------------------------------------------------
# UVM_INFO ../uvc/env/apb_ram_driver.sv(64) @ 3730: uvm_test_top.env.a.d [DRV] mode:writed, addr:25, wdata:4022774536, rdata:0, slverr:0
# UVM_INFO ../uvc/env/apb_ram_scoreboard.sv(34) @ 3770: uvm_test_top.env.s [SCO] DATA WRITE OP  addr:25, wdata:4022774536 arr_wr:4022774536
# ----------------------------------------------------------------
# UVM_INFO ../uvc/env/apb_ram_driver.sv(78) @ 3790: uvm_test_top.env.a.d [DRV] mode:readd, addr:6, wdata:3012510934, rdata:0, slverr:0
# UVM_INFO ../uvc/env/apb_ram_scoreboard.sv(47) @ 3830: uvm_test_top.env.s [SCO] DATA MATCHED : addr:6, rdata:3007791890
# ----------------------------------------------------------------
# UVM_INFO ../uvc/env/apb_ram_driver.sv(64) @ 3850: uvm_test_top.env.a.d [DRV] mode:writed, addr:13, wdata:3611130099, rdata:0, slverr:0
# UVM_INFO ../uvc/env/apb_ram_scoreboard.sv(34) @ 3890: uvm_test_top.env.s [SCO] DATA WRITE OP  addr:13, wdata:3611130099 arr_wr:3611130099
# ----------------------------------------------------------------
# UVM_INFO ../uvc/env/apb_ram_driver.sv(78) @ 3910: uvm_test_top.env.a.d [DRV] mode:readd, addr:4, wdata:573725882, rdata:0, slverr:0
# UVM_INFO ../uvc/env/apb_ram_scoreboard.sv(47) @ 3950: uvm_test_top.env.s [SCO] DATA MATCHED : addr:4, rdata:3373696266
# ----------------------------------------------------------------
# UVM_INFO ../uvc/env/apb_ram_driver.sv(64) @ 3970: uvm_test_top.env.a.d [DRV] mode:writed, addr:9, wdata:2726042824, rdata:0, slverr:0
# UVM_INFO ../uvc/env/apb_ram_scoreboard.sv(34) @ 4010: uvm_test_top.env.s [SCO] DATA WRITE OP  addr:9, wdata:2726042824 arr_wr:2726042824
# ----------------------------------------------------------------
# UVM_INFO ../uvc/env/apb_ram_driver.sv(78) @ 4030: uvm_test_top.env.a.d [DRV] mode:readd, addr:28, wdata:1096171635, rdata:0, slverr:0
# UVM_INFO ../uvc/env/apb_ram_scoreboard.sv(47) @ 4070: uvm_test_top.env.s [SCO] DATA MATCHED : addr:28, rdata:2412323114
# ----------------------------------------------------------------
# UVM_INFO ../uvc/env/apb_ram_driver.sv(64) @ 4090: uvm_test_top.env.a.d [DRV] mode:writed, addr:13, wdata:4116889447, rdata:0, slverr:0
# UVM_INFO ../uvc/env/apb_ram_scoreboard.sv(34) @ 4130: uvm_test_top.env.s [SCO] DATA WRITE OP  addr:13, wdata:4116889447 arr_wr:4116889447
# ----------------------------------------------------------------
# UVM_INFO ../uvc/env/apb_ram_driver.sv(78) @ 4150: uvm_test_top.env.a.d [DRV] mode:readd, addr:11, wdata:1609299050, rdata:0, slverr:0
# UVM_INFO ../uvc/env/apb_ram_scoreboard.sv(47) @ 4190: uvm_test_top.env.s [SCO] DATA MATCHED : addr:11, rdata:0
# ----------------------------------------------------------------
# UVM_INFO ../uvc/env/apb_ram_driver.sv(64) @ 4210: uvm_test_top.env.a.d [DRV] mode:writed, addr:21, wdata:1721030693, rdata:0, slverr:0
# UVM_INFO ../uvc/env/apb_ram_scoreboard.sv(34) @ 4250: uvm_test_top.env.s [SCO] DATA WRITE OP  addr:21, wdata:1721030693 arr_wr:1721030693
# ----------------------------------------------------------------
# UVM_INFO ../uvc/env/apb_ram_driver.sv(78) @ 4270: uvm_test_top.env.a.d [DRV] mode:readd, addr:26, wdata:1907405854, rdata:0, slverr:0
# UVM_INFO ../uvc/env/apb_ram_scoreboard.sv(47) @ 4310: uvm_test_top.env.s [SCO] DATA MATCHED : addr:26, rdata:0
# ----------------------------------------------------------------
# UVM_INFO ../uvc/env/apb_ram_driver.sv(64) @ 4330: uvm_test_top.env.a.d [DRV] mode:writed, addr:14, wdata:3615637079, rdata:0, slverr:0
# UVM_INFO ../uvc/env/apb_ram_scoreboard.sv(34) @ 4370: uvm_test_top.env.s [SCO] DATA WRITE OP  addr:14, wdata:3615637079 arr_wr:3615637079
# ----------------------------------------------------------------
# UVM_INFO ../uvc/env/apb_ram_driver.sv(78) @ 4390: uvm_test_top.env.a.d [DRV] mode:readd, addr:4, wdata:2567223576, rdata:0, slverr:0
# UVM_INFO ../uvc/env/apb_ram_scoreboard.sv(47) @ 4430: uvm_test_top.env.s [SCO] DATA MATCHED : addr:4, rdata:3373696266
# ----------------------------------------------------------------
# UVM_INFO ../uvc/env/apb_ram_driver.sv(64) @ 4450: uvm_test_top.env.a.d [DRV] mode:writed, addr:11, wdata:344372223, rdata:0, slverr:0
# UVM_INFO ../uvc/env/apb_ram_scoreboard.sv(34) @ 4490: uvm_test_top.env.s [SCO] DATA WRITE OP  addr:11, wdata:344372223 arr_wr:344372223
# ----------------------------------------------------------------
# UVM_INFO ../uvc/env/apb_ram_driver.sv(78) @ 4510: uvm_test_top.env.a.d [DRV] mode:readd, addr:15, wdata:847442581, rdata:0, slverr:0
# UVM_INFO ../uvc/env/apb_ram_scoreboard.sv(47) @ 4550: uvm_test_top.env.s [SCO] DATA MATCHED : addr:15, rdata:4144100939
# ----------------------------------------------------------------
# UVM_INFO ../uvc/env/apb_ram_driver.sv(64) @ 4570: uvm_test_top.env.a.d [DRV] mode:writed, addr:7, wdata:2856583018, rdata:0, slverr:0
# UVM_INFO ../uvc/env/apb_ram_scoreboard.sv(34) @ 4610: uvm_test_top.env.s [SCO] DATA WRITE OP  addr:7, wdata:2856583018 arr_wr:2856583018
# ----------------------------------------------------------------
# UVM_INFO ../uvc/env/apb_ram_driver.sv(78) @ 4630: uvm_test_top.env.a.d [DRV] mode:readd, addr:0, wdata:1640786469, rdata:0, slverr:0
# UVM_INFO ../uvc/env/apb_ram_scoreboard.sv(47) @ 4670: uvm_test_top.env.s [SCO] DATA MATCHED : addr:0, rdata:2337079852
# ----------------------------------------------------------------
# UVM_INFO ../uvc/env/apb_ram_driver.sv(64) @ 4690: uvm_test_top.env.a.d [DRV] mode:writed, addr:15, wdata:2759802914, rdata:0, slverr:0
# UVM_INFO ../uvc/env/apb_ram_scoreboard.sv(34) @ 4730: uvm_test_top.env.s [SCO] DATA WRITE OP  addr:15, wdata:2759802914 arr_wr:2759802914
# ----------------------------------------------------------------
# UVM_INFO ../uvc/env/apb_ram_driver.sv(78) @ 4750: uvm_test_top.env.a.d [DRV] mode:readd, addr:10, wdata:173840900, rdata:0, slverr:0
# UVM_INFO ../uvc/env/apb_ram_scoreboard.sv(47) @ 4790: uvm_test_top.env.s [SCO] DATA MATCHED : addr:10, rdata:4007790511
# ----------------------------------------------------------------
# UVM_INFO ../uvc/env/apb_ram_driver.sv(64) @ 4810: uvm_test_top.env.a.d [DRV] mode:writed, addr:8, wdata:3302395917, rdata:0, slverr:0
# UVM_INFO ../uvc/env/apb_ram_scoreboard.sv(34) @ 4850: uvm_test_top.env.s [SCO] DATA WRITE OP  addr:8, wdata:3302395917 arr_wr:3302395917
# ----------------------------------------------------------------
# UVM_INFO ../uvc/env/apb_ram_driver.sv(78) @ 4870: uvm_test_top.env.a.d [DRV] mode:readd, addr:0, wdata:3074316253, rdata:0, slverr:0
# UVM_INFO ../uvc/env/apb_ram_scoreboard.sv(47) @ 4910: uvm_test_top.env.s [SCO] DATA MATCHED : addr:0, rdata:2337079852
# ----------------------------------------------------------------
# UVM_INFO ../uvc/env/apb_ram_driver.sv(64) @ 4930: uvm_test_top.env.a.d [DRV] mode:writed, addr:2, wdata:3755934142, rdata:0, slverr:0
# UVM_INFO ../uvc/env/apb_ram_scoreboard.sv(34) @ 4970: uvm_test_top.env.s [SCO] DATA WRITE OP  addr:2, wdata:3755934142 arr_wr:3755934142
# ----------------------------------------------------------------
# UVM_INFO ../uvc/env/apb_ram_driver.sv(78) @ 4990: uvm_test_top.env.a.d [DRV] mode:readd, addr:29, wdata:2009335954, rdata:0, slverr:0
# UVM_INFO ../uvc/env/apb_ram_scoreboard.sv(47) @ 5030: uvm_test_top.env.s [SCO] DATA MATCHED : addr:29, rdata:0
# ----------------------------------------------------------------
# UVM_INFO ../uvc/env/apb_ram_driver.sv(64) @ 5050: uvm_test_top.env.a.d [DRV] mode:writed, addr:23, wdata:3906754574, rdata:0, slverr:0
# UVM_INFO ../uvc/env/apb_ram_scoreboard.sv(34) @ 5090: uvm_test_top.env.s [SCO] DATA WRITE OP  addr:23, wdata:3906754574 arr_wr:3906754574
# ----------------------------------------------------------------
# UVM_INFO ../uvc/env/apb_ram_driver.sv(78) @ 5110: uvm_test_top.env.a.d [DRV] mode:readd, addr:10, wdata:1093583199, rdata:0, slverr:0
# UVM_INFO ../uvc/env/apb_ram_scoreboard.sv(47) @ 5150: uvm_test_top.env.s [SCO] DATA MATCHED : addr:10, rdata:4007790511
# ----------------------------------------------------------------
# UVM_INFO ../uvc/env/apb_ram_driver.sv(64) @ 5170: uvm_test_top.env.a.d [DRV] mode:writed, addr:8, wdata:2695237669, rdata:0, slverr:0
# UVM_INFO ../uvc/env/apb_ram_scoreboard.sv(34) @ 5210: uvm_test_top.env.s [SCO] DATA WRITE OP  addr:8, wdata:2695237669 arr_wr:2695237669
# ----------------------------------------------------------------
# UVM_INFO ../uvc/env/apb_ram_driver.sv(78) @ 5230: uvm_test_top.env.a.d [DRV] mode:readd, addr:13, wdata:1340967957, rdata:0, slverr:0
# UVM_INFO ../uvc/env/apb_ram_scoreboard.sv(47) @ 5270: uvm_test_top.env.s [SCO] DATA MATCHED : addr:13, rdata:4116889447
# ----------------------------------------------------------------
# UVM_INFO ../uvc/env/apb_ram_driver.sv(64) @ 5290: uvm_test_top.env.a.d [DRV] mode:writed, addr:12, wdata:3922692892, rdata:0, slverr:0
# UVM_INFO ../uvc/env/apb_ram_scoreboard.sv(34) @ 5330: uvm_test_top.env.s [SCO] DATA WRITE OP  addr:12, wdata:3922692892 arr_wr:3922692892
# ----------------------------------------------------------------
# UVM_INFO ../uvc/env/apb_ram_driver.sv(78) @ 5350: uvm_test_top.env.a.d [DRV] mode:readd, addr:13, wdata:1326557156, rdata:0, slverr:0
# UVM_INFO ../uvc/env/apb_ram_scoreboard.sv(47) @ 5390: uvm_test_top.env.s [SCO] DATA MATCHED : addr:13, rdata:4116889447
# ----------------------------------------------------------------
# UVM_INFO ../uvc/env/apb_ram_driver.sv(64) @ 5410: uvm_test_top.env.a.d [DRV] mode:writed, addr:4, wdata:4110560064, rdata:0, slverr:0
# UVM_INFO ../uvc/env/apb_ram_scoreboard.sv(34) @ 5450: uvm_test_top.env.s [SCO] DATA WRITE OP  addr:4, wdata:4110560064 arr_wr:4110560064
# ----------------------------------------------------------------
# UVM_INFO ../uvc/env/apb_ram_driver.sv(78) @ 5470: uvm_test_top.env.a.d [DRV] mode:readd, addr:21, wdata:1689707734, rdata:0, slverr:0
# UVM_INFO ../uvc/env/apb_ram_scoreboard.sv(47) @ 5510: uvm_test_top.env.s [SCO] DATA MATCHED : addr:21, rdata:1721030693
# ----------------------------------------------------------------
# UVM_INFO ../uvc/env/apb_ram_driver.sv(64) @ 5530: uvm_test_top.env.a.d [DRV] mode:writed, addr:16, wdata:3745644506, rdata:0, slverr:0
# UVM_INFO ../uvc/env/apb_ram_scoreboard.sv(34) @ 5570: uvm_test_top.env.s [SCO] DATA WRITE OP  addr:16, wdata:3745644506 arr_wr:3745644506
# ----------------------------------------------------------------
# UVM_INFO ../uvc/env/apb_ram_driver.sv(78) @ 5590: uvm_test_top.env.a.d [DRV] mode:readd, addr:11, wdata:1687574432, rdata:0, slverr:0
# UVM_INFO ../uvc/env/apb_ram_scoreboard.sv(47) @ 5630: uvm_test_top.env.s [SCO] DATA MATCHED : addr:11, rdata:344372223
# ----------------------------------------------------------------
# UVM_INFO ../uvc/env/apb_ram_driver.sv(64) @ 5650: uvm_test_top.env.a.d [DRV] mode:writed, addr:3, wdata:2512043228, rdata:0, slverr:0
# UVM_INFO ../uvc/env/apb_ram_scoreboard.sv(34) @ 5690: uvm_test_top.env.s [SCO] DATA WRITE OP  addr:3, wdata:2512043228 arr_wr:2512043228
# ----------------------------------------------------------------
# UVM_INFO ../uvc/env/apb_ram_driver.sv(78) @ 5710: uvm_test_top.env.a.d [DRV] mode:readd, addr:13, wdata:2421750047, rdata:0, slverr:0
# UVM_INFO ../uvc/env/apb_ram_scoreboard.sv(47) @ 5750: uvm_test_top.env.s [SCO] DATA MATCHED : addr:13, rdata:4116889447
# ----------------------------------------------------------------
# UVM_INFO ../uvc/env/apb_ram_driver.sv(64) @ 5770: uvm_test_top.env.a.d [DRV] mode:writed, addr:22, wdata:3543838675, rdata:0, slverr:0
# UVM_INFO ../uvc/env/apb_ram_scoreboard.sv(34) @ 5810: uvm_test_top.env.s [SCO] DATA WRITE OP  addr:22, wdata:3543838675 arr_wr:3543838675
# ----------------------------------------------------------------
# UVM_INFO ../uvc/env/apb_ram_driver.sv(78) @ 5830: uvm_test_top.env.a.d [DRV] mode:readd, addr:30, wdata:2455390672, rdata:0, slverr:0
# UVM_INFO ../uvc/env/apb_ram_scoreboard.sv(47) @ 5870: uvm_test_top.env.s [SCO] DATA MATCHED : addr:30, rdata:812920989
# ----------------------------------------------------------------
# UVM_INFO ../uvc/env/apb_ram_driver.sv(64) @ 5890: uvm_test_top.env.a.d [DRV] mode:writed, addr:17, wdata:4275940845, rdata:0, slverr:0
# UVM_INFO ../uvc/env/apb_ram_scoreboard.sv(34) @ 5930: uvm_test_top.env.s [SCO] DATA WRITE OP  addr:17, wdata:4275940845 arr_wr:4275940845
# ----------------------------------------------------------------
# UVM_INFO ../uvc/env/apb_ram_driver.sv(78) @ 5950: uvm_test_top.env.a.d [DRV] mode:readd, addr:28, wdata:326076968, rdata:0, slverr:0
# UVM_INFO ../uvc/env/apb_ram_scoreboard.sv(47) @ 5990: uvm_test_top.env.s [SCO] DATA MATCHED : addr:28, rdata:2412323114
# ----------------------------------------------------------------
# UVM_INFO ../uvc/env/apb_ram_driver.sv(64) @ 6010: uvm_test_top.env.a.d [DRV] mode:writed, addr:28, wdata:2230595295, rdata:0, slverr:0
# UVM_INFO ../uvc/env/apb_ram_scoreboard.sv(34) @ 6050: uvm_test_top.env.s [SCO] DATA WRITE OP  addr:28, wdata:2230595295 arr_wr:2230595295
# ----------------------------------------------------------------
# UVM_INFO ../uvc/env/apb_ram_driver.sv(78) @ 6070: uvm_test_top.env.a.d [DRV] mode:readd, addr:30, wdata:2725359598, rdata:0, slverr:0
# UVM_INFO ../uvc/env/apb_ram_scoreboard.sv(47) @ 6110: uvm_test_top.env.s [SCO] DATA MATCHED : addr:30, rdata:812920989
# ----------------------------------------------------------------
# UVM_INFO ../uvc/env/apb_ram_driver.sv(64) @ 6130: uvm_test_top.env.a.d [DRV] mode:writed, addr:7, wdata:2308568196, rdata:0, slverr:0
# UVM_INFO ../uvc/env/apb_ram_scoreboard.sv(34) @ 6170: uvm_test_top.env.s [SCO] DATA WRITE OP  addr:7, wdata:2308568196 arr_wr:2308568196
# ----------------------------------------------------------------
# UVM_INFO ../uvc/env/apb_ram_driver.sv(78) @ 6190: uvm_test_top.env.a.d [DRV] mode:readd, addr:22, wdata:651093078, rdata:0, slverr:0
# UVM_INFO ../uvc/env/apb_ram_scoreboard.sv(47) @ 6230: uvm_test_top.env.s [SCO] DATA MATCHED : addr:22, rdata:3543838675
# ----------------------------------------------------------------
# UVM_INFO ../uvc/env/apb_ram_driver.sv(64) @ 6250: uvm_test_top.env.a.d [DRV] mode:writed, addr:25, wdata:701912914, rdata:0, slverr:0
# UVM_INFO ../uvc/env/apb_ram_scoreboard.sv(34) @ 6290: uvm_test_top.env.s [SCO] DATA WRITE OP  addr:25, wdata:701912914 arr_wr:701912914
# ----------------------------------------------------------------
# UVM_INFO ../uvc/env/apb_ram_driver.sv(78) @ 6310: uvm_test_top.env.a.d [DRV] mode:readd, addr:10, wdata:1258764651, rdata:0, slverr:0
# UVM_INFO ../uvc/env/apb_ram_scoreboard.sv(47) @ 6350: uvm_test_top.env.s [SCO] DATA MATCHED : addr:10, rdata:4007790511
# ----------------------------------------------------------------
# UVM_INFO ../uvc/env/apb_ram_driver.sv(64) @ 6370: uvm_test_top.env.a.d [DRV] mode:writed, addr:13, wdata:2675317075, rdata:0, slverr:0
# UVM_INFO ../uvc/env/apb_ram_scoreboard.sv(34) @ 6410: uvm_test_top.env.s [SCO] DATA WRITE OP  addr:13, wdata:2675317075 arr_wr:2675317075
# ----------------------------------------------------------------
# UVM_INFO ../uvc/env/apb_ram_driver.sv(78) @ 6430: uvm_test_top.env.a.d [DRV] mode:readd, addr:10, wdata:1930987503, rdata:0, slverr:0
# UVM_INFO ../uvc/env/apb_ram_scoreboard.sv(47) @ 6470: uvm_test_top.env.s [SCO] DATA MATCHED : addr:10, rdata:4007790511
# ----------------------------------------------------------------
# UVM_INFO ../uvc/env/apb_ram_driver.sv(64) @ 6490: uvm_test_top.env.a.d [DRV] mode:writed, addr:29, wdata:2200227099, rdata:0, slverr:0
# UVM_INFO ../uvc/env/apb_ram_scoreboard.sv(34) @ 6530: uvm_test_top.env.s [SCO] DATA WRITE OP  addr:29, wdata:2200227099 arr_wr:2200227099
# ----------------------------------------------------------------
# UVM_INFO ../uvc/env/apb_ram_driver.sv(78) @ 6550: uvm_test_top.env.a.d [DRV] mode:readd, addr:16, wdata:545298632, rdata:0, slverr:0
# UVM_INFO ../uvc/env/apb_ram_scoreboard.sv(47) @ 6590: uvm_test_top.env.s [SCO] DATA MATCHED : addr:16, rdata:3745644506
# ----------------------------------------------------------------
# UVM_INFO ../uvc/env/apb_ram_driver.sv(64) @ 6610: uvm_test_top.env.a.d [DRV] mode:writed, addr:15, wdata:3286523773, rdata:0, slverr:0
# UVM_INFO ../uvc/env/apb_ram_scoreboard.sv(34) @ 6650: uvm_test_top.env.s [SCO] DATA WRITE OP  addr:15, wdata:3286523773 arr_wr:3286523773
# ----------------------------------------------------------------
# UVM_INFO ../uvc/env/apb_ram_driver.sv(78) @ 6670: uvm_test_top.env.a.d [DRV] mode:readd, addr:19, wdata:1055755987, rdata:0, slverr:0
# UVM_INFO ../uvc/env/apb_ram_scoreboard.sv(47) @ 6710: uvm_test_top.env.s [SCO] DATA MATCHED : addr:19, rdata:4281818903
# ----------------------------------------------------------------
# UVM_INFO ../uvc/env/apb_ram_driver.sv(64) @ 6730: uvm_test_top.env.a.d [DRV] mode:writed, addr:27, wdata:78192278, rdata:0, slverr:0
# UVM_INFO ../uvc/env/apb_ram_scoreboard.sv(34) @ 6770: uvm_test_top.env.s [SCO] DATA WRITE OP  addr:27, wdata:78192278 arr_wr:78192278
# ----------------------------------------------------------------
# UVM_INFO ../uvc/env/apb_ram_driver.sv(78) @ 6790: uvm_test_top.env.a.d [DRV] mode:readd, addr:19, wdata:3810780570, rdata:0, slverr:0
# UVM_INFO ../uvc/env/apb_ram_scoreboard.sv(47) @ 6830: uvm_test_top.env.s [SCO] DATA MATCHED : addr:19, rdata:4281818903
# ----------------------------------------------------------------
# UVM_INFO ../uvc/env/apb_ram_driver.sv(64) @ 6850: uvm_test_top.env.a.d [DRV] mode:writed, addr:5, wdata:322757482, rdata:0, slverr:0
# UVM_INFO ../uvc/env/apb_ram_scoreboard.sv(34) @ 6890: uvm_test_top.env.s [SCO] DATA WRITE OP  addr:5, wdata:322757482 arr_wr:322757482
# ----------------------------------------------------------------
# UVM_INFO ../uvc/env/apb_ram_driver.sv(78) @ 6910: uvm_test_top.env.a.d [DRV] mode:readd, addr:5, wdata:86746718, rdata:0, slverr:0
# UVM_INFO ../uvc/env/apb_ram_scoreboard.sv(47) @ 6950: uvm_test_top.env.s [SCO] DATA MATCHED : addr:5, rdata:322757482
# ----------------------------------------------------------------
# UVM_INFO ../uvc/env/apb_ram_driver.sv(64) @ 6970: uvm_test_top.env.a.d [DRV] mode:writed, addr:11, wdata:2478945088, rdata:0, slverr:0
# UVM_INFO ../uvc/env/apb_ram_scoreboard.sv(34) @ 7010: uvm_test_top.env.s [SCO] DATA WRITE OP  addr:11, wdata:2478945088 arr_wr:2478945088
# ----------------------------------------------------------------
# UVM_INFO ../uvc/env/apb_ram_driver.sv(78) @ 7030: uvm_test_top.env.a.d [DRV] mode:readd, addr:12, wdata:4077937275, rdata:0, slverr:0
# UVM_INFO ../uvc/env/apb_ram_scoreboard.sv(47) @ 7070: uvm_test_top.env.s [SCO] DATA MATCHED : addr:12, rdata:3922692892
# ----------------------------------------------------------------
# UVM_INFO ../uvc/env/apb_ram_driver.sv(64) @ 7090: uvm_test_top.env.a.d [DRV] mode:writed, addr:22, wdata:2148780082, rdata:0, slverr:0
# UVM_INFO ../uvc/env/apb_ram_scoreboard.sv(34) @ 7130: uvm_test_top.env.s [SCO] DATA WRITE OP  addr:22, wdata:2148780082 arr_wr:2148780082
# ----------------------------------------------------------------
# UVM_INFO ../uvc/env/apb_ram_driver.sv(78) @ 7150: uvm_test_top.env.a.d [DRV] mode:readd, addr:20, wdata:3687998549, rdata:0, slverr:0
# UVM_INFO ../uvc/env/apb_ram_scoreboard.sv(47) @ 7190: uvm_test_top.env.s [SCO] DATA MATCHED : addr:20, rdata:1408008632
# ----------------------------------------------------------------
# UVM_INFO ../uvc/env/apb_ram_driver.sv(64) @ 7210: uvm_test_top.env.a.d [DRV] mode:writed, addr:12, wdata:1969942284, rdata:0, slverr:0
# UVM_INFO ../uvc/env/apb_ram_scoreboard.sv(34) @ 7250: uvm_test_top.env.s [SCO] DATA WRITE OP  addr:12, wdata:1969942284 arr_wr:1969942284
# ----------------------------------------------------------------
# UVM_INFO ../uvc/env/apb_ram_driver.sv(78) @ 7270: uvm_test_top.env.a.d [DRV] mode:readd, addr:19, wdata:3337416416, rdata:0, slverr:0
# UVM_INFO ../uvc/env/apb_ram_scoreboard.sv(47) @ 7310: uvm_test_top.env.s [SCO] DATA MATCHED : addr:19, rdata:4281818903
# ----------------------------------------------------------------
# UVM_INFO ../uvc/env/apb_ram_driver.sv(64) @ 7330: uvm_test_top.env.a.d [DRV] mode:writed, addr:7, wdata:1710853968, rdata:0, slverr:0
# UVM_INFO ../uvc/env/apb_ram_scoreboard.sv(34) @ 7370: uvm_test_top.env.s [SCO] DATA WRITE OP  addr:7, wdata:1710853968 arr_wr:1710853968
# ----------------------------------------------------------------
# UVM_INFO ../uvc/env/apb_ram_driver.sv(78) @ 7390: uvm_test_top.env.a.d [DRV] mode:readd, addr:10, wdata:821409746, rdata:0, slverr:0
# UVM_INFO ../uvc/env/apb_ram_scoreboard.sv(47) @ 7430: uvm_test_top.env.s [SCO] DATA MATCHED : addr:10, rdata:4007790511
# ----------------------------------------------------------------
# UVM_INFO ../uvc/env/apb_ram_driver.sv(64) @ 7450: uvm_test_top.env.a.d [DRV] mode:writed, addr:8, wdata:153223450, rdata:0, slverr:0
# UVM_INFO ../uvc/env/apb_ram_scoreboard.sv(34) @ 7490: uvm_test_top.env.s [SCO] DATA WRITE OP  addr:8, wdata:153223450 arr_wr:153223450
# ----------------------------------------------------------------
# UVM_INFO ../uvc/env/apb_ram_driver.sv(78) @ 7510: uvm_test_top.env.a.d [DRV] mode:readd, addr:9, wdata:166857563, rdata:0, slverr:0
# UVM_INFO ../uvc/env/apb_ram_scoreboard.sv(47) @ 7550: uvm_test_top.env.s [SCO] DATA MATCHED : addr:9, rdata:2726042824
# ----------------------------------------------------------------
# UVM_INFO ../uvc/env/apb_ram_driver.sv(64) @ 7570: uvm_test_top.env.a.d [DRV] mode:writed, addr:18, wdata:664546674, rdata:0, slverr:0
# UVM_INFO ../uvc/env/apb_ram_scoreboard.sv(34) @ 7610: uvm_test_top.env.s [SCO] DATA WRITE OP  addr:18, wdata:664546674 arr_wr:664546674
# ----------------------------------------------------------------
# UVM_INFO ../uvc/env/apb_ram_driver.sv(78) @ 7630: uvm_test_top.env.a.d [DRV] mode:readd, addr:8, wdata:1030322138, rdata:0, slverr:0
# UVM_INFO ../uvc/env/apb_ram_scoreboard.sv(47) @ 7670: uvm_test_top.env.s [SCO] DATA MATCHED : addr:8, rdata:153223450
# ----------------------------------------------------------------
# UVM_INFO ../uvc/env/apb_ram_driver.sv(64) @ 7690: uvm_test_top.env.a.d [DRV] mode:writed, addr:0, wdata:1988183800, rdata:0, slverr:0
# UVM_INFO ../uvc/env/apb_ram_scoreboard.sv(34) @ 7730: uvm_test_top.env.s [SCO] DATA WRITE OP  addr:0, wdata:1988183800 arr_wr:1988183800
# ----------------------------------------------------------------
# UVM_INFO ../uvc/env/apb_ram_driver.sv(78) @ 7750: uvm_test_top.env.a.d [DRV] mode:readd, addr:5, wdata:3840895145, rdata:0, slverr:0
# UVM_INFO ../uvc/env/apb_ram_scoreboard.sv(47) @ 7790: uvm_test_top.env.s [SCO] DATA MATCHED : addr:5, rdata:322757482
# ----------------------------------------------------------------
# UVM_INFO ../uvc/env/apb_ram_driver.sv(64) @ 7810: uvm_test_top.env.a.d [DRV] mode:writed, addr:17, wdata:2011130809, rdata:0, slverr:0
# UVM_INFO ../uvc/env/apb_ram_scoreboard.sv(34) @ 7850: uvm_test_top.env.s [SCO] DATA WRITE OP  addr:17, wdata:2011130809 arr_wr:2011130809
# ----------------------------------------------------------------
# UVM_INFO ../uvc/env/apb_ram_driver.sv(78) @ 7870: uvm_test_top.env.a.d [DRV] mode:readd, addr:26, wdata:1150916601, rdata:0, slverr:0
# UVM_INFO ../uvc/env/apb_ram_scoreboard.sv(47) @ 7910: uvm_test_top.env.s [SCO] DATA MATCHED : addr:26, rdata:0
# ----------------------------------------------------------------
# UVM_INFO ../uvc/env/apb_ram_driver.sv(64) @ 7930: uvm_test_top.env.a.d [DRV] mode:writed, addr:27, wdata:2825991358, rdata:0, slverr:0
# UVM_INFO ../uvc/env/apb_ram_scoreboard.sv(34) @ 7970: uvm_test_top.env.s [SCO] DATA WRITE OP  addr:27, wdata:2825991358 arr_wr:2825991358
# ----------------------------------------------------------------
# UVM_INFO ../uvc/env/apb_ram_driver.sv(78) @ 7990: uvm_test_top.env.a.d [DRV] mode:readd, addr:14, wdata:2548276334, rdata:0, slverr:0
# UVM_INFO ../uvc/env/apb_ram_scoreboard.sv(47) @ 8030: uvm_test_top.env.s [SCO] DATA MATCHED : addr:14, rdata:3615637079
# ----------------------------------------------------------------
# UVM_INFO ../uvc/env/apb_ram_driver.sv(64) @ 8050: uvm_test_top.env.a.d [DRV] mode:writed, addr:9, wdata:3590852060, rdata:0, slverr:0
# UVM_INFO ../uvc/env/apb_ram_scoreboard.sv(34) @ 8090: uvm_test_top.env.s [SCO] DATA WRITE OP  addr:9, wdata:3590852060 arr_wr:3590852060
# ----------------------------------------------------------------
# UVM_INFO ../uvc/env/apb_ram_driver.sv(78) @ 8110: uvm_test_top.env.a.d [DRV] mode:readd, addr:5, wdata:769091389, rdata:0, slverr:0
# UVM_INFO ../uvc/env/apb_ram_scoreboard.sv(47) @ 8150: uvm_test_top.env.s [SCO] DATA MATCHED : addr:5, rdata:322757482
# ----------------------------------------------------------------
# UVM_INFO ../uvc/env/apb_ram_driver.sv(64) @ 8170: uvm_test_top.env.a.d [DRV] mode:writed, addr:15, wdata:3950128786, rdata:0, slverr:0
# UVM_INFO ../uvc/env/apb_ram_scoreboard.sv(34) @ 8210: uvm_test_top.env.s [SCO] DATA WRITE OP  addr:15, wdata:3950128786 arr_wr:3950128786
# ----------------------------------------------------------------
# UVM_INFO ../uvc/env/apb_ram_driver.sv(78) @ 8230: uvm_test_top.env.a.d [DRV] mode:readd, addr:15, wdata:2207862757, rdata:0, slverr:0
# UVM_INFO ../uvc/env/apb_ram_scoreboard.sv(47) @ 8270: uvm_test_top.env.s [SCO] DATA MATCHED : addr:15, rdata:3950128786
# ----------------------------------------------------------------
# UVM_INFO ../uvc/env/apb_ram_driver.sv(64) @ 8290: uvm_test_top.env.a.d [DRV] mode:writed, addr:21, wdata:3340501546, rdata:0, slverr:0
# UVM_INFO ../uvc/env/apb_ram_scoreboard.sv(34) @ 8330: uvm_test_top.env.s [SCO] DATA WRITE OP  addr:21, wdata:3340501546 arr_wr:3340501546
# ----------------------------------------------------------------
# UVM_INFO ../uvc/env/apb_ram_driver.sv(78) @ 8350: uvm_test_top.env.a.d [DRV] mode:readd, addr:13, wdata:3882506872, rdata:0, slverr:0
# UVM_INFO ../uvc/env/apb_ram_scoreboard.sv(47) @ 8390: uvm_test_top.env.s [SCO] DATA MATCHED : addr:13, rdata:2675317075
# ----------------------------------------------------------------
# UVM_INFO ../uvc/env/apb_ram_driver.sv(64) @ 8410: uvm_test_top.env.a.d [DRV] mode:writed, addr:13, wdata:1130505767, rdata:0, slverr:0
# UVM_INFO ../uvc/env/apb_ram_scoreboard.sv(34) @ 8450: uvm_test_top.env.s [SCO] DATA WRITE OP  addr:13, wdata:1130505767 arr_wr:1130505767
# ----------------------------------------------------------------
# UVM_INFO ../uvc/env/apb_ram_driver.sv(78) @ 8470: uvm_test_top.env.a.d [DRV] mode:readd, addr:23, wdata:4247768858, rdata:0, slverr:0
# UVM_INFO ../uvc/env/apb_ram_scoreboard.sv(47) @ 8510: uvm_test_top.env.s [SCO] DATA MATCHED : addr:23, rdata:3906754574
# ----------------------------------------------------------------
# UVM_INFO ../uvc/env/apb_ram_driver.sv(64) @ 8530: uvm_test_top.env.a.d [DRV] mode:writed, addr:31, wdata:1133814824, rdata:0, slverr:0
# UVM_INFO ../uvc/env/apb_ram_scoreboard.sv(34) @ 8570: uvm_test_top.env.s [SCO] DATA WRITE OP  addr:31, wdata:1133814824 arr_wr:1133814824
# ----------------------------------------------------------------
# UVM_INFO ../uvc/env/apb_ram_driver.sv(78) @ 8590: uvm_test_top.env.a.d [DRV] mode:readd, addr:25, wdata:3014625495, rdata:0, slverr:0
# UVM_INFO ../uvc/env/apb_ram_scoreboard.sv(47) @ 8630: uvm_test_top.env.s [SCO] DATA MATCHED : addr:25, rdata:701912914
# ----------------------------------------------------------------
# UVM_INFO ../uvc/env/apb_ram_driver.sv(64) @ 8650: uvm_test_top.env.a.d [DRV] mode:writed, addr:17, wdata:2264520271, rdata:0, slverr:0
# UVM_INFO ../uvc/env/apb_ram_scoreboard.sv(34) @ 8690: uvm_test_top.env.s [SCO] DATA WRITE OP  addr:17, wdata:2264520271 arr_wr:2264520271
# ----------------------------------------------------------------
# UVM_INFO ../uvc/env/apb_ram_driver.sv(78) @ 8710: uvm_test_top.env.a.d [DRV] mode:readd, addr:24, wdata:310717168, rdata:0, slverr:0
# UVM_INFO ../uvc/env/apb_ram_scoreboard.sv(47) @ 8750: uvm_test_top.env.s [SCO] DATA MATCHED : addr:24, rdata:0
# ----------------------------------------------------------------
# UVM_INFO ../uvc/env/apb_ram_driver.sv(64) @ 8770: uvm_test_top.env.a.d [DRV] mode:writed, addr:1, wdata:3688955785, rdata:0, slverr:0
# UVM_INFO ../uvc/env/apb_ram_scoreboard.sv(34) @ 8810: uvm_test_top.env.s [SCO] DATA WRITE OP  addr:1, wdata:3688955785 arr_wr:3688955785
# ----------------------------------------------------------------
# UVM_INFO ../uvc/env/apb_ram_driver.sv(78) @ 8830: uvm_test_top.env.a.d [DRV] mode:readd, addr:4, wdata:1183555303, rdata:0, slverr:0
# UVM_INFO ../uvc/env/apb_ram_scoreboard.sv(47) @ 8870: uvm_test_top.env.s [SCO] DATA MATCHED : addr:4, rdata:4110560064
# ----------------------------------------------------------------
# UVM_INFO ../uvc/env/apb_ram_driver.sv(64) @ 8890: uvm_test_top.env.a.d [DRV] mode:writed, addr:29, wdata:2058902554, rdata:0, slverr:0
# UVM_INFO ../uvc/env/apb_ram_scoreboard.sv(34) @ 8930: uvm_test_top.env.s [SCO] DATA WRITE OP  addr:29, wdata:2058902554 arr_wr:2058902554
# ----------------------------------------------------------------
# UVM_INFO ../uvc/env/apb_ram_driver.sv(78) @ 8950: uvm_test_top.env.a.d [DRV] mode:readd, addr:2, wdata:4023841771, rdata:0, slverr:0
# UVM_INFO ../uvc/env/apb_ram_scoreboard.sv(47) @ 8990: uvm_test_top.env.s [SCO] DATA MATCHED : addr:2, rdata:3755934142
# ----------------------------------------------------------------
# UVM_INFO ../uvc/env/apb_ram_driver.sv(64) @ 9010: uvm_test_top.env.a.d [DRV] mode:writed, addr:16, wdata:2954956876, rdata:0, slverr:0
# UVM_INFO ../uvc/env/apb_ram_scoreboard.sv(34) @ 9050: uvm_test_top.env.s [SCO] DATA WRITE OP  addr:16, wdata:2954956876 arr_wr:2954956876
# ----------------------------------------------------------------
# UVM_INFO ../uvc/env/apb_ram_driver.sv(78) @ 9070: uvm_test_top.env.a.d [DRV] mode:readd, addr:3, wdata:2223237463, rdata:0, slverr:0
# UVM_INFO ../uvc/env/apb_ram_scoreboard.sv(47) @ 9110: uvm_test_top.env.s [SCO] DATA MATCHED : addr:3, rdata:2512043228
# ----------------------------------------------------------------
# UVM_INFO ../uvc/env/apb_ram_driver.sv(64) @ 9130: uvm_test_top.env.a.d [DRV] mode:writed, addr:5, wdata:2974829014, rdata:0, slverr:0
# UVM_INFO ../uvc/env/apb_ram_scoreboard.sv(34) @ 9170: uvm_test_top.env.s [SCO] DATA WRITE OP  addr:5, wdata:2974829014 arr_wr:2974829014
# ----------------------------------------------------------------
# UVM_INFO ../uvc/env/apb_ram_driver.sv(78) @ 9190: uvm_test_top.env.a.d [DRV] mode:readd, addr:22, wdata:1192269762, rdata:0, slverr:0
# UVM_INFO ../uvc/env/apb_ram_scoreboard.sv(47) @ 9230: uvm_test_top.env.s [SCO] DATA MATCHED : addr:22, rdata:2148780082
# ----------------------------------------------------------------
# UVM_INFO ../uvc/env/apb_ram_driver.sv(64) @ 9250: uvm_test_top.env.a.d [DRV] mode:writed, addr:28, wdata:1907849944, rdata:0, slverr:0
# UVM_INFO ../uvc/env/apb_ram_scoreboard.sv(34) @ 9290: uvm_test_top.env.s [SCO] DATA WRITE OP  addr:28, wdata:1907849944 arr_wr:1907849944
# ----------------------------------------------------------------
# UVM_INFO ../uvc/env/apb_ram_driver.sv(78) @ 9310: uvm_test_top.env.a.d [DRV] mode:readd, addr:30, wdata:2221954395, rdata:0, slverr:0
# UVM_INFO ../uvc/env/apb_ram_scoreboard.sv(47) @ 9350: uvm_test_top.env.s [SCO] DATA MATCHED : addr:30, rdata:812920989
# ----------------------------------------------------------------
# UVM_INFO ../uvc/env/apb_ram_driver.sv(64) @ 9370: uvm_test_top.env.a.d [DRV] mode:writed, addr:7, wdata:2175067410, rdata:0, slverr:0
# UVM_INFO ../uvc/env/apb_ram_scoreboard.sv(34) @ 9410: uvm_test_top.env.s [SCO] DATA WRITE OP  addr:7, wdata:2175067410 arr_wr:2175067410
# ----------------------------------------------------------------
# UVM_INFO ../uvc/env/apb_ram_driver.sv(78) @ 9430: uvm_test_top.env.a.d [DRV] mode:readd, addr:5, wdata:3335452793, rdata:0, slverr:0
# UVM_INFO ../uvc/env/apb_ram_scoreboard.sv(47) @ 9470: uvm_test_top.env.s [SCO] DATA MATCHED : addr:5, rdata:2974829014
# ----------------------------------------------------------------
# UVM_INFO ../uvc/env/apb_ram_driver.sv(64) @ 9490: uvm_test_top.env.a.d [DRV] mode:writed, addr:16, wdata:3411786402, rdata:0, slverr:0
# UVM_INFO ../uvc/env/apb_ram_scoreboard.sv(34) @ 9530: uvm_test_top.env.s [SCO] DATA WRITE OP  addr:16, wdata:3411786402 arr_wr:3411786402
# ----------------------------------------------------------------
# UVM_INFO ../uvc/env/apb_ram_driver.sv(78) @ 9550: uvm_test_top.env.a.d [DRV] mode:readd, addr:16, wdata:1787588036, rdata:0, slverr:0
# UVM_INFO ../uvc/env/apb_ram_scoreboard.sv(47) @ 9590: uvm_test_top.env.s [SCO] DATA MATCHED : addr:16, rdata:3411786402
# ----------------------------------------------------------------
# UVM_INFO ../uvc/env/apb_ram_driver.sv(64) @ 9610: uvm_test_top.env.a.d [DRV] mode:writed, addr:18, wdata:2659618988, rdata:0, slverr:0
# UVM_INFO ../uvc/env/apb_ram_scoreboard.sv(34) @ 9650: uvm_test_top.env.s [SCO] DATA WRITE OP  addr:18, wdata:2659618988 arr_wr:2659618988
# ----------------------------------------------------------------
# UVM_INFO ../uvc/env/apb_ram_driver.sv(78) @ 9670: uvm_test_top.env.a.d [DRV] mode:readd, addr:16, wdata:1659277432, rdata:0, slverr:0
# UVM_INFO ../uvc/env/apb_ram_scoreboard.sv(47) @ 9710: uvm_test_top.env.s [SCO] DATA MATCHED : addr:16, rdata:3411786402
# ----------------------------------------------------------------
# UVM_INFO ../uvc/env/apb_ram_driver.sv(64) @ 9730: uvm_test_top.env.a.d [DRV] mode:writed, addr:19, wdata:3936361046, rdata:0, slverr:0
# UVM_INFO ../uvc/env/apb_ram_scoreboard.sv(34) @ 9770: uvm_test_top.env.s [SCO] DATA WRITE OP  addr:19, wdata:3936361046 arr_wr:3936361046
# ----------------------------------------------------------------
# UVM_INFO ../uvc/env/apb_ram_driver.sv(78) @ 9790: uvm_test_top.env.a.d [DRV] mode:readd, addr:2, wdata:1794837671, rdata:0, slverr:0
# UVM_INFO ../uvc/env/apb_ram_scoreboard.sv(47) @ 9830: uvm_test_top.env.s [SCO] DATA MATCHED : addr:2, rdata:3755934142
# ----------------------------------------------------------------
# UVM_INFO ../uvc/env/apb_ram_driver.sv(64) @ 9850: uvm_test_top.env.a.d [DRV] mode:writed, addr:28, wdata:3710513179, rdata:0, slverr:0
# UVM_INFO ../uvc/env/apb_ram_scoreboard.sv(34) @ 9890: uvm_test_top.env.s [SCO] DATA WRITE OP  addr:28, wdata:3710513179 arr_wr:3710513179
# ----------------------------------------------------------------
# UVM_INFO ../uvc/env/apb_ram_driver.sv(78) @ 9910: uvm_test_top.env.a.d [DRV] mode:readd, addr:22, wdata:3640719809, rdata:0, slverr:0
# UVM_INFO ../uvc/env/apb_ram_scoreboard.sv(47) @ 9950: uvm_test_top.env.s [SCO] DATA MATCHED : addr:22, rdata:2148780082
# ----------------------------------------------------------------
# UVM_INFO ../uvc/env/apb_ram_driver.sv(64) @ 9970: uvm_test_top.env.a.d [DRV] mode:writed, addr:31, wdata:787977165, rdata:0, slverr:0
# UVM_INFO ../uvc/env/apb_ram_scoreboard.sv(34) @ 10010: uvm_test_top.env.s [SCO] DATA WRITE OP  addr:31, wdata:787977165 arr_wr:787977165
# ----------------------------------------------------------------
# UVM_INFO ../uvc/env/apb_ram_driver.sv(78) @ 10030: uvm_test_top.env.a.d [DRV] mode:readd, addr:3, wdata:2345142233, rdata:0, slverr:0
# UVM_INFO ../uvc/env/apb_ram_scoreboard.sv(47) @ 10070: uvm_test_top.env.s [SCO] DATA MATCHED : addr:3, rdata:2512043228
# ----------------------------------------------------------------
# UVM_INFO ../uvc/env/apb_ram_driver.sv(64) @ 10090: uvm_test_top.env.a.d [DRV] mode:writed, addr:31, wdata:801649942, rdata:0, slverr:0
# UVM_INFO ../uvc/env/apb_ram_scoreboard.sv(34) @ 10130: uvm_test_top.env.s [SCO] DATA WRITE OP  addr:31, wdata:801649942 arr_wr:801649942
# ----------------------------------------------------------------
# UVM_INFO ../uvc/env/apb_ram_driver.sv(78) @ 10150: uvm_test_top.env.a.d [DRV] mode:readd, addr:2, wdata:2006104193, rdata:0, slverr:0
# UVM_INFO ../uvc/env/apb_ram_scoreboard.sv(47) @ 10190: uvm_test_top.env.s [SCO] DATA MATCHED : addr:2, rdata:3755934142
# ----------------------------------------------------------------
# UVM_INFO ../uvc/env/apb_ram_driver.sv(64) @ 10210: uvm_test_top.env.a.d [DRV] mode:writed, addr:17, wdata:1476042363, rdata:0, slverr:0
# UVM_INFO ../uvc/env/apb_ram_scoreboard.sv(34) @ 10250: uvm_test_top.env.s [SCO] DATA WRITE OP  addr:17, wdata:1476042363 arr_wr:1476042363
# ----------------------------------------------------------------
# UVM_INFO ../uvc/env/apb_ram_driver.sv(78) @ 10270: uvm_test_top.env.a.d [DRV] mode:readd, addr:0, wdata:3518621329, rdata:0, slverr:0
# UVM_INFO ../uvc/env/apb_ram_scoreboard.sv(47) @ 10310: uvm_test_top.env.s [SCO] DATA MATCHED : addr:0, rdata:1988183800
# ----------------------------------------------------------------
# UVM_INFO ../uvc/env/apb_ram_driver.sv(64) @ 10330: uvm_test_top.env.a.d [DRV] mode:writed, addr:11, wdata:2137532133, rdata:0, slverr:0
# UVM_INFO ../uvc/env/apb_ram_scoreboard.sv(34) @ 10370: uvm_test_top.env.s [SCO] DATA WRITE OP  addr:11, wdata:2137532133 arr_wr:2137532133
# ----------------------------------------------------------------
# UVM_INFO ../uvc/env/apb_ram_driver.sv(78) @ 10390: uvm_test_top.env.a.d [DRV] mode:readd, addr:20, wdata:2776129333, rdata:0, slverr:0
# UVM_INFO ../uvc/env/apb_ram_scoreboard.sv(47) @ 10430: uvm_test_top.env.s [SCO] DATA MATCHED : addr:20, rdata:1408008632
# ----------------------------------------------------------------
# UVM_INFO ../uvc/env/apb_ram_driver.sv(64) @ 10450: uvm_test_top.env.a.d [DRV] mode:writed, addr:31, wdata:3262606895, rdata:0, slverr:0
# UVM_INFO ../uvc/env/apb_ram_scoreboard.sv(34) @ 10490: uvm_test_top.env.s [SCO] DATA WRITE OP  addr:31, wdata:3262606895 arr_wr:3262606895
# ----------------------------------------------------------------
# UVM_INFO ../uvc/env/apb_ram_driver.sv(78) @ 10510: uvm_test_top.env.a.d [DRV] mode:readd, addr:22, wdata:3261359776, rdata:0, slverr:0
# UVM_INFO ../uvc/env/apb_ram_scoreboard.sv(47) @ 10550: uvm_test_top.env.s [SCO] DATA MATCHED : addr:22, rdata:2148780082
# ----------------------------------------------------------------
# UVM_INFO ../uvc/env/apb_ram_driver.sv(64) @ 10570: uvm_test_top.env.a.d [DRV] mode:writed, addr:2, wdata:527631564, rdata:0, slverr:0
# UVM_INFO ../uvc/env/apb_ram_scoreboard.sv(34) @ 10610: uvm_test_top.env.s [SCO] DATA WRITE OP  addr:2, wdata:527631564 arr_wr:527631564
# ----------------------------------------------------------------
# UVM_INFO ../uvc/env/apb_ram_driver.sv(78) @ 10630: uvm_test_top.env.a.d [DRV] mode:readd, addr:10, wdata:2087854648, rdata:0, slverr:0
# UVM_INFO ../uvc/env/apb_ram_scoreboard.sv(47) @ 10670: uvm_test_top.env.s [SCO] DATA MATCHED : addr:10, rdata:4007790511
# ----------------------------------------------------------------
# UVM_INFO ../uvc/env/apb_ram_driver.sv(64) @ 10690: uvm_test_top.env.a.d [DRV] mode:writed, addr:12, wdata:173185429, rdata:0, slverr:0
# UVM_INFO ../uvc/env/apb_ram_scoreboard.sv(34) @ 10730: uvm_test_top.env.s [SCO] DATA WRITE OP  addr:12, wdata:173185429 arr_wr:173185429
# ----------------------------------------------------------------
# UVM_INFO ../uvc/env/apb_ram_driver.sv(78) @ 10750: uvm_test_top.env.a.d [DRV] mode:readd, addr:20, wdata:554971349, rdata:0, slverr:0
# UVM_INFO ../uvc/env/apb_ram_scoreboard.sv(47) @ 10790: uvm_test_top.env.s [SCO] DATA MATCHED : addr:20, rdata:1408008632
# ----------------------------------------------------------------
# UVM_INFO ../uvc/env/apb_ram_driver.sv(64) @ 10810: uvm_test_top.env.a.d [DRV] mode:writed, addr:30, wdata:3614734715, rdata:0, slverr:0
# UVM_INFO ../uvc/env/apb_ram_scoreboard.sv(34) @ 10850: uvm_test_top.env.s [SCO] DATA WRITE OP  addr:30, wdata:3614734715 arr_wr:3614734715
# ----------------------------------------------------------------
# UVM_INFO ../uvc/env/apb_ram_driver.sv(78) @ 10870: uvm_test_top.env.a.d [DRV] mode:readd, addr:4, wdata:235311237, rdata:0, slverr:0
# UVM_INFO ../uvc/env/apb_ram_scoreboard.sv(47) @ 10910: uvm_test_top.env.s [SCO] DATA MATCHED : addr:4, rdata:4110560064
# ----------------------------------------------------------------
# UVM_INFO ../uvc/env/apb_ram_driver.sv(64) @ 10930: uvm_test_top.env.a.d [DRV] mode:writed, addr:16, wdata:2476399168, rdata:0, slverr:0
# UVM_INFO ../uvc/env/apb_ram_scoreboard.sv(34) @ 10970: uvm_test_top.env.s [SCO] DATA WRITE OP  addr:16, wdata:2476399168 arr_wr:2476399168
# ----------------------------------------------------------------
# UVM_INFO ../uvc/env/apb_ram_driver.sv(78) @ 10990: uvm_test_top.env.a.d [DRV] mode:readd, addr:24, wdata:2956639403, rdata:0, slverr:0
# UVM_INFO ../uvc/env/apb_ram_scoreboard.sv(47) @ 11030: uvm_test_top.env.s [SCO] DATA MATCHED : addr:24, rdata:0
# ----------------------------------------------------------------
# UVM_INFO ../uvc/env/apb_ram_driver.sv(64) @ 11050: uvm_test_top.env.a.d [DRV] mode:writed, addr:9, wdata:1278688331, rdata:0, slverr:0
# UVM_INFO ../uvc/env/apb_ram_scoreboard.sv(34) @ 11090: uvm_test_top.env.s [SCO] DATA WRITE OP  addr:9, wdata:1278688331 arr_wr:1278688331
# ----------------------------------------------------------------
# UVM_INFO ../uvc/env/apb_ram_driver.sv(78) @ 11110: uvm_test_top.env.a.d [DRV] mode:readd, addr:25, wdata:1113423029, rdata:0, slverr:0
# UVM_INFO ../uvc/env/apb_ram_scoreboard.sv(47) @ 11150: uvm_test_top.env.s [SCO] DATA MATCHED : addr:25, rdata:701912914
# ----------------------------------------------------------------
# UVM_INFO ../uvc/env/apb_ram_driver.sv(64) @ 11170: uvm_test_top.env.a.d [DRV] mode:writed, addr:3, wdata:684610537, rdata:0, slverr:0
# UVM_INFO ../uvc/env/apb_ram_scoreboard.sv(34) @ 11210: uvm_test_top.env.s [SCO] DATA WRITE OP  addr:3, wdata:684610537 arr_wr:684610537
# ----------------------------------------------------------------
# UVM_INFO ../uvc/env/apb_ram_driver.sv(78) @ 11230: uvm_test_top.env.a.d [DRV] mode:readd, addr:17, wdata:2446717284, rdata:0, slverr:0
# UVM_INFO ../uvc/env/apb_ram_scoreboard.sv(47) @ 11270: uvm_test_top.env.s [SCO] DATA MATCHED : addr:17, rdata:1476042363
# ----------------------------------------------------------------
# UVM_INFO ../uvc/env/apb_ram_driver.sv(64) @ 11290: uvm_test_top.env.a.d [DRV] mode:writed, addr:12, wdata:3395233769, rdata:0, slverr:0
# UVM_INFO ../uvc/env/apb_ram_scoreboard.sv(34) @ 11330: uvm_test_top.env.s [SCO] DATA WRITE OP  addr:12, wdata:3395233769 arr_wr:3395233769
# ----------------------------------------------------------------
# UVM_INFO ../uvc/env/apb_ram_driver.sv(78) @ 11350: uvm_test_top.env.a.d [DRV] mode:readd, addr:14, wdata:1174950360, rdata:0, slverr:0
# UVM_INFO ../uvc/env/apb_ram_scoreboard.sv(47) @ 11390: uvm_test_top.env.s [SCO] DATA MATCHED : addr:14, rdata:3615637079
# ----------------------------------------------------------------
# UVM_INFO ../uvc/env/apb_ram_driver.sv(64) @ 11410: uvm_test_top.env.a.d [DRV] mode:writed, addr:10, wdata:3603049644, rdata:0, slverr:0
# UVM_INFO ../uvc/env/apb_ram_scoreboard.sv(34) @ 11450: uvm_test_top.env.s [SCO] DATA WRITE OP  addr:10, wdata:3603049644 arr_wr:3603049644
# ----------------------------------------------------------------
# UVM_INFO ../uvc/env/apb_ram_driver.sv(78) @ 11470: uvm_test_top.env.a.d [DRV] mode:readd, addr:21, wdata:1775645361, rdata:0, slverr:0
# UVM_INFO ../uvc/env/apb_ram_scoreboard.sv(47) @ 11510: uvm_test_top.env.s [SCO] DATA MATCHED : addr:21, rdata:3340501546
# ----------------------------------------------------------------
# UVM_INFO ../uvc/env/apb_ram_driver.sv(64) @ 11530: uvm_test_top.env.a.d [DRV] mode:writed, addr:30, wdata:376497910, rdata:0, slverr:0
# UVM_INFO ../uvc/env/apb_ram_scoreboard.sv(34) @ 11570: uvm_test_top.env.s [SCO] DATA WRITE OP  addr:30, wdata:376497910 arr_wr:376497910
# ----------------------------------------------------------------
# UVM_INFO ../uvc/env/apb_ram_driver.sv(78) @ 11590: uvm_test_top.env.a.d [DRV] mode:readd, addr:24, wdata:400974934, rdata:0, slverr:0
# UVM_INFO ../uvc/env/apb_ram_scoreboard.sv(47) @ 11630: uvm_test_top.env.s [SCO] DATA MATCHED : addr:24, rdata:0
# ----------------------------------------------------------------
# UVM_INFO ../uvc/env/apb_ram_driver.sv(64) @ 11650: uvm_test_top.env.a.d [DRV] mode:writed, addr:2, wdata:4142374801, rdata:0, slverr:0
# UVM_INFO ../uvc/env/apb_ram_scoreboard.sv(34) @ 11690: uvm_test_top.env.s [SCO] DATA WRITE OP  addr:2, wdata:4142374801 arr_wr:4142374801
# ----------------------------------------------------------------
# UVM_INFO ../uvc/env/apb_ram_driver.sv(78) @ 11710: uvm_test_top.env.a.d [DRV] mode:readd, addr:22, wdata:3150480132, rdata:0, slverr:0
# UVM_INFO ../uvc/env/apb_ram_scoreboard.sv(47) @ 11750: uvm_test_top.env.s [SCO] DATA MATCHED : addr:22, rdata:2148780082
# ----------------------------------------------------------------
# UVM_INFO ../uvc/env/apb_ram_driver.sv(64) @ 11770: uvm_test_top.env.a.d [DRV] mode:writed, addr:1, wdata:1569023787, rdata:0, slverr:0
# UVM_INFO ../uvc/env/apb_ram_scoreboard.sv(34) @ 11810: uvm_test_top.env.s [SCO] DATA WRITE OP  addr:1, wdata:1569023787 arr_wr:1569023787
# ----------------------------------------------------------------
# UVM_INFO ../uvc/env/apb_ram_driver.sv(78) @ 11830: uvm_test_top.env.a.d [DRV] mode:readd, addr:23, wdata:2022174404, rdata:0, slverr:0
# UVM_INFO ../uvc/env/apb_ram_scoreboard.sv(47) @ 11870: uvm_test_top.env.s [SCO] DATA MATCHED : addr:23, rdata:3906754574
# ----------------------------------------------------------------
# UVM_INFO ../uvc/env/apb_ram_driver.sv(64) @ 11890: uvm_test_top.env.a.d [DRV] mode:writed, addr:2, wdata:2304405851, rdata:0, slverr:0
# UVM_INFO ../uvc/env/apb_ram_scoreboard.sv(34) @ 11930: uvm_test_top.env.s [SCO] DATA WRITE OP  addr:2, wdata:2304405851 arr_wr:2304405851
# ----------------------------------------------------------------
# UVM_INFO ../uvc/env/apb_ram_driver.sv(78) @ 11950: uvm_test_top.env.a.d [DRV] mode:readd, addr:11, wdata:4281547652, rdata:0, slverr:0
# UVM_INFO ../uvc/env/apb_ram_scoreboard.sv(47) @ 11990: uvm_test_top.env.s [SCO] DATA MATCHED : addr:11, rdata:2137532133
# ----------------------------------------------------------------
# UVM_INFO ../uvc/env/apb_ram_driver.sv(64) @ 12010: uvm_test_top.env.a.d [DRV] mode:writed, addr:2, wdata:318844920, rdata:0, slverr:0
# UVM_INFO ../uvc/env/apb_ram_scoreboard.sv(34) @ 12050: uvm_test_top.env.s [SCO] DATA WRITE OP  addr:2, wdata:318844920 arr_wr:318844920
# ----------------------------------------------------------------
# UVM_INFO ../uvc/env/apb_ram_driver.sv(78) @ 12070: uvm_test_top.env.a.d [DRV] mode:readd, addr:5, wdata:400040318, rdata:0, slverr:0
# UVM_INFO ../uvc/env/apb_ram_scoreboard.sv(47) @ 12110: uvm_test_top.env.s [SCO] DATA MATCHED : addr:5, rdata:2974829014
# ----------------------------------------------------------------
# UVM_INFO ../uvc/env/apb_ram_driver.sv(64) @ 12130: uvm_test_top.env.a.d [DRV] mode:writed, addr:2, wdata:366698312, rdata:0, slverr:0
# UVM_INFO ../uvc/env/apb_ram_scoreboard.sv(34) @ 12170: uvm_test_top.env.s [SCO] DATA WRITE OP  addr:2, wdata:366698312 arr_wr:366698312
# ----------------------------------------------------------------
# UVM_INFO ../uvc/env/apb_ram_driver.sv(78) @ 12190: uvm_test_top.env.a.d [DRV] mode:readd, addr:8, wdata:3935591456, rdata:0, slverr:0
# UVM_INFO ../uvc/env/apb_ram_scoreboard.sv(47) @ 12230: uvm_test_top.env.s [SCO] DATA MATCHED : addr:8, rdata:153223450
# ----------------------------------------------------------------
# UVM_INFO ../uvc/env/apb_ram_driver.sv(64) @ 12250: uvm_test_top.env.a.d [DRV] mode:writed, addr:10, wdata:1028655961, rdata:0, slverr:0
# UVM_INFO ../uvc/env/apb_ram_scoreboard.sv(34) @ 12290: uvm_test_top.env.s [SCO] DATA WRITE OP  addr:10, wdata:1028655961 arr_wr:1028655961
# ----------------------------------------------------------------
# UVM_INFO ../uvc/env/apb_ram_driver.sv(78) @ 12310: uvm_test_top.env.a.d [DRV] mode:readd, addr:10, wdata:3067379699, rdata:0, slverr:0
# UVM_INFO ../uvc/env/apb_ram_scoreboard.sv(47) @ 12350: uvm_test_top.env.s [SCO] DATA MATCHED : addr:10, rdata:1028655961
# ----------------------------------------------------------------
# UVM_INFO ../uvc/env/apb_ram_driver.sv(64) @ 12370: uvm_test_top.env.a.d [DRV] mode:writed, addr:19, wdata:3115828290, rdata:0, slverr:0
# UVM_INFO ../uvc/env/apb_ram_scoreboard.sv(34) @ 12410: uvm_test_top.env.s [SCO] DATA WRITE OP  addr:19, wdata:3115828290 arr_wr:3115828290
# ----------------------------------------------------------------
# UVM_INFO ../uvc/env/apb_ram_driver.sv(78) @ 12430: uvm_test_top.env.a.d [DRV] mode:readd, addr:5, wdata:2004521244, rdata:0, slverr:0
# UVM_INFO ../uvc/env/apb_ram_scoreboard.sv(47) @ 12470: uvm_test_top.env.s [SCO] DATA MATCHED : addr:5, rdata:2974829014
# ----------------------------------------------------------------
# UVM_INFO ../uvc/env/apb_ram_driver.sv(64) @ 12490: uvm_test_top.env.a.d [DRV] mode:writed, addr:1, wdata:3377184582, rdata:0, slverr:0
# UVM_INFO ../uvc/env/apb_ram_scoreboard.sv(34) @ 12530: uvm_test_top.env.s [SCO] DATA WRITE OP  addr:1, wdata:3377184582 arr_wr:3377184582
# ----------------------------------------------------------------
# UVM_INFO ../uvc/env/apb_ram_driver.sv(78) @ 12550: uvm_test_top.env.a.d [DRV] mode:readd, addr:1, wdata:723158303, rdata:0, slverr:0
# UVM_INFO ../uvc/env/apb_ram_scoreboard.sv(47) @ 12590: uvm_test_top.env.s [SCO] DATA MATCHED : addr:1, rdata:3377184582
# ----------------------------------------------------------------
# UVM_INFO ../uvc/env/apb_ram_driver.sv(64) @ 12610: uvm_test_top.env.a.d [DRV] mode:writed, addr:10, wdata:1555312539, rdata:0, slverr:0
# UVM_INFO ../uvc/env/apb_ram_scoreboard.sv(34) @ 12650: uvm_test_top.env.s [SCO] DATA WRITE OP  addr:10, wdata:1555312539 arr_wr:1555312539
# ----------------------------------------------------------------
# UVM_INFO ../uvc/env/apb_ram_driver.sv(78) @ 12670: uvm_test_top.env.a.d [DRV] mode:readd, addr:28, wdata:690523063, rdata:0, slverr:0
# UVM_INFO ../uvc/env/apb_ram_scoreboard.sv(47) @ 12710: uvm_test_top.env.s [SCO] DATA MATCHED : addr:28, rdata:3710513179
# ----------------------------------------------------------------
# UVM_INFO ../uvc/env/apb_ram_driver.sv(64) @ 12730: uvm_test_top.env.a.d [DRV] mode:writed, addr:11, wdata:4015223329, rdata:0, slverr:0
# UVM_INFO ../uvc/env/apb_ram_scoreboard.sv(34) @ 12770: uvm_test_top.env.s [SCO] DATA WRITE OP  addr:11, wdata:4015223329 arr_wr:4015223329
# ----------------------------------------------------------------
# UVM_INFO ../uvc/env/apb_ram_driver.sv(78) @ 12790: uvm_test_top.env.a.d [DRV] mode:readd, addr:30, wdata:49704364, rdata:0, slverr:0
# UVM_INFO ../uvc/env/apb_ram_scoreboard.sv(47) @ 12830: uvm_test_top.env.s [SCO] DATA MATCHED : addr:30, rdata:376497910
# ----------------------------------------------------------------
# UVM_INFO ../uvc/env/apb_ram_driver.sv(64) @ 12850: uvm_test_top.env.a.d [DRV] mode:writed, addr:4, wdata:889099262, rdata:0, slverr:0
# UVM_INFO ../uvc/env/apb_ram_scoreboard.sv(34) @ 12890: uvm_test_top.env.s [SCO] DATA WRITE OP  addr:4, wdata:889099262 arr_wr:889099262
# ----------------------------------------------------------------
# UVM_INFO ../uvc/env/apb_ram_driver.sv(78) @ 12910: uvm_test_top.env.a.d [DRV] mode:readd, addr:25, wdata:2231044628, rdata:0, slverr:0
# UVM_INFO ../uvc/env/apb_ram_scoreboard.sv(47) @ 12950: uvm_test_top.env.s [SCO] DATA MATCHED : addr:25, rdata:701912914
# ----------------------------------------------------------------
# UVM_INFO ../uvc/env/apb_ram_driver.sv(64) @ 12970: uvm_test_top.env.a.d [DRV] mode:writed, addr:5, wdata:705636355, rdata:0, slverr:0
# UVM_INFO ../uvc/env/apb_ram_scoreboard.sv(34) @ 13010: uvm_test_top.env.s [SCO] DATA WRITE OP  addr:5, wdata:705636355 arr_wr:705636355
# ----------------------------------------------------------------
# UVM_INFO ../uvc/env/apb_ram_driver.sv(78) @ 13030: uvm_test_top.env.a.d [DRV] mode:readd, addr:20, wdata:1240087122, rdata:0, slverr:0
# UVM_INFO ../uvc/env/apb_ram_scoreboard.sv(47) @ 13070: uvm_test_top.env.s [SCO] DATA MATCHED : addr:20, rdata:1408008632
# ----------------------------------------------------------------
# UVM_INFO ../uvc/env/apb_ram_driver.sv(64) @ 13090: uvm_test_top.env.a.d [DRV] mode:writed, addr:9, wdata:798058760, rdata:0, slverr:0
# UVM_INFO ../uvc/env/apb_ram_scoreboard.sv(34) @ 13130: uvm_test_top.env.s [SCO] DATA WRITE OP  addr:9, wdata:798058760 arr_wr:798058760
# ----------------------------------------------------------------
# UVM_INFO ../uvc/env/apb_ram_driver.sv(78) @ 13150: uvm_test_top.env.a.d [DRV] mode:readd, addr:13, wdata:4083235492, rdata:0, slverr:0
# UVM_INFO ../uvc/env/apb_ram_scoreboard.sv(47) @ 13190: uvm_test_top.env.s [SCO] DATA MATCHED : addr:13, rdata:1130505767
# ----------------------------------------------------------------
# UVM_INFO ../uvc/env/apb_ram_driver.sv(64) @ 13210: uvm_test_top.env.a.d [DRV] mode:writed, addr:17, wdata:3665136207, rdata:0, slverr:0
# UVM_INFO ../uvc/env/apb_ram_scoreboard.sv(34) @ 13250: uvm_test_top.env.s [SCO] DATA WRITE OP  addr:17, wdata:3665136207 arr_wr:3665136207
# ----------------------------------------------------------------
# UVM_INFO ../uvc/env/apb_ram_driver.sv(78) @ 13270: uvm_test_top.env.a.d [DRV] mode:readd, addr:16, wdata:799690770, rdata:0, slverr:0
# UVM_INFO ../uvc/env/apb_ram_scoreboard.sv(47) @ 13310: uvm_test_top.env.s [SCO] DATA MATCHED : addr:16, rdata:2476399168
# ----------------------------------------------------------------
# UVM_INFO ../uvc/env/apb_ram_driver.sv(64) @ 13330: uvm_test_top.env.a.d [DRV] mode:writed, addr:7, wdata:2722594362, rdata:0, slverr:0
# UVM_INFO ../uvc/env/apb_ram_scoreboard.sv(34) @ 13370: uvm_test_top.env.s [SCO] DATA WRITE OP  addr:7, wdata:2722594362 arr_wr:2722594362
# ----------------------------------------------------------------
# UVM_INFO ../uvc/env/apb_ram_driver.sv(78) @ 13390: uvm_test_top.env.a.d [DRV] mode:readd, addr:26, wdata:2247859741, rdata:0, slverr:0
# UVM_INFO ../uvc/env/apb_ram_scoreboard.sv(47) @ 13430: uvm_test_top.env.s [SCO] DATA MATCHED : addr:26, rdata:0
# ----------------------------------------------------------------
# UVM_INFO ../uvc/env/apb_ram_driver.sv(64) @ 13450: uvm_test_top.env.a.d [DRV] mode:writed, addr:8, wdata:2164347913, rdata:0, slverr:0
# UVM_INFO ../uvc/env/apb_ram_scoreboard.sv(34) @ 13490: uvm_test_top.env.s [SCO] DATA WRITE OP  addr:8, wdata:2164347913 arr_wr:2164347913
# ----------------------------------------------------------------
# UVM_INFO ../uvc/env/apb_ram_driver.sv(78) @ 13510: uvm_test_top.env.a.d [DRV] mode:readd, addr:1, wdata:2885034233, rdata:0, slverr:0
# UVM_INFO ../uvc/env/apb_ram_scoreboard.sv(47) @ 13550: uvm_test_top.env.s [SCO] DATA MATCHED : addr:1, rdata:3377184582
# ----------------------------------------------------------------
# UVM_INFO ../uvc/env/apb_ram_driver.sv(64) @ 13570: uvm_test_top.env.a.d [DRV] mode:writed, addr:29, wdata:1720201703, rdata:0, slverr:0
# UVM_INFO ../uvc/env/apb_ram_scoreboard.sv(34) @ 13610: uvm_test_top.env.s [SCO] DATA WRITE OP  addr:29, wdata:1720201703 arr_wr:1720201703
# ----------------------------------------------------------------
# UVM_INFO ../uvc/env/apb_ram_driver.sv(78) @ 13630: uvm_test_top.env.a.d [DRV] mode:readd, addr:30, wdata:312612176, rdata:0, slverr:0
# UVM_INFO ../uvc/env/apb_ram_scoreboard.sv(47) @ 13670: uvm_test_top.env.s [SCO] DATA MATCHED : addr:30, rdata:376497910
# ----------------------------------------------------------------
# UVM_INFO ../uvc/env/apb_ram_driver.sv(64) @ 13690: uvm_test_top.env.a.d [DRV] mode:writed, addr:25, wdata:3862259946, rdata:0, slverr:0
# UVM_INFO ../uvc/env/apb_ram_scoreboard.sv(34) @ 13730: uvm_test_top.env.s [SCO] DATA WRITE OP  addr:25, wdata:3862259946 arr_wr:3862259946
# ----------------------------------------------------------------
# UVM_INFO ../uvc/env/apb_ram_driver.sv(78) @ 13750: uvm_test_top.env.a.d [DRV] mode:readd, addr:25, wdata:3022731130, rdata:0, slverr:0
# UVM_INFO ../uvc/env/apb_ram_scoreboard.sv(47) @ 13790: uvm_test_top.env.s [SCO] DATA MATCHED : addr:25, rdata:3862259946
# ----------------------------------------------------------------
# UVM_INFO ../uvc/env/apb_ram_driver.sv(64) @ 13810: uvm_test_top.env.a.d [DRV] mode:writed, addr:20, wdata:341366704, rdata:0, slverr:0
# UVM_INFO ../uvc/env/apb_ram_scoreboard.sv(34) @ 13850: uvm_test_top.env.s [SCO] DATA WRITE OP  addr:20, wdata:341366704 arr_wr:341366704
# ----------------------------------------------------------------
# UVM_INFO ../uvc/env/apb_ram_driver.sv(78) @ 13870: uvm_test_top.env.a.d [DRV] mode:readd, addr:2, wdata:764589702, rdata:0, slverr:0
# UVM_INFO ../uvc/env/apb_ram_scoreboard.sv(47) @ 13910: uvm_test_top.env.s [SCO] DATA MATCHED : addr:2, rdata:366698312
# ----------------------------------------------------------------
# UVM_INFO ../uvc/env/apb_ram_driver.sv(64) @ 13930: uvm_test_top.env.a.d [DRV] mode:writed, addr:30, wdata:4131507890, rdata:0, slverr:0
# UVM_INFO ../uvc/env/apb_ram_scoreboard.sv(34) @ 13970: uvm_test_top.env.s [SCO] DATA WRITE OP  addr:30, wdata:4131507890 arr_wr:4131507890
# ----------------------------------------------------------------
# UVM_INFO ../uvc/env/apb_ram_driver.sv(78) @ 13990: uvm_test_top.env.a.d [DRV] mode:readd, addr:18, wdata:3681232612, rdata:0, slverr:0
# UVM_INFO ../uvc/env/apb_ram_scoreboard.sv(47) @ 14030: uvm_test_top.env.s [SCO] DATA MATCHED : addr:18, rdata:2659618988
# ----------------------------------------------------------------
# UVM_INFO ../uvc/env/apb_ram_driver.sv(64) @ 14050: uvm_test_top.env.a.d [DRV] mode:writed, addr:9, wdata:438250927, rdata:0, slverr:0
# UVM_INFO ../uvc/env/apb_ram_scoreboard.sv(34) @ 14090: uvm_test_top.env.s [SCO] DATA WRITE OP  addr:9, wdata:438250927 arr_wr:438250927
# ----------------------------------------------------------------
# UVM_INFO ../uvc/env/apb_ram_driver.sv(78) @ 14110: uvm_test_top.env.a.d [DRV] mode:readd, addr:11, wdata:588702656, rdata:0, slverr:0
# UVM_INFO ../uvc/env/apb_ram_scoreboard.sv(47) @ 14150: uvm_test_top.env.s [SCO] DATA MATCHED : addr:11, rdata:4015223329
# ----------------------------------------------------------------
# UVM_INFO ../uvc/env/apb_ram_driver.sv(64) @ 14170: uvm_test_top.env.a.d [DRV] mode:writed, addr:8, wdata:1378384966, rdata:0, slverr:0
# UVM_INFO ../uvc/env/apb_ram_scoreboard.sv(34) @ 14210: uvm_test_top.env.s [SCO] DATA WRITE OP  addr:8, wdata:1378384966 arr_wr:1378384966
# ----------------------------------------------------------------
# UVM_INFO ../uvc/env/apb_ram_driver.sv(78) @ 14230: uvm_test_top.env.a.d [DRV] mode:readd, addr:26, wdata:2687314662, rdata:0, slverr:0
# UVM_INFO ../uvc/env/apb_ram_scoreboard.sv(47) @ 14270: uvm_test_top.env.s [SCO] DATA MATCHED : addr:26, rdata:0
# ----------------------------------------------------------------
# UVM_INFO ../uvc/env/apb_ram_driver.sv(64) @ 14290: uvm_test_top.env.a.d [DRV] mode:writed, addr:6, wdata:4105429282, rdata:0, slverr:0
# UVM_INFO ../uvc/env/apb_ram_scoreboard.sv(34) @ 14330: uvm_test_top.env.s [SCO] DATA WRITE OP  addr:6, wdata:4105429282 arr_wr:4105429282
# ----------------------------------------------------------------
# UVM_INFO ../uvc/env/apb_ram_driver.sv(78) @ 14350: uvm_test_top.env.a.d [DRV] mode:readd, addr:24, wdata:1405744990, rdata:0, slverr:0
# UVM_INFO ../uvc/env/apb_ram_scoreboard.sv(47) @ 14390: uvm_test_top.env.s [SCO] DATA MATCHED : addr:24, rdata:0
# ----------------------------------------------------------------
# UVM_INFO ../uvc/env/apb_ram_driver.sv(64) @ 14410: uvm_test_top.env.a.d [DRV] mode:writed, addr:24, wdata:2340038594, rdata:0, slverr:0
# UVM_INFO ../uvc/env/apb_ram_scoreboard.sv(34) @ 14450: uvm_test_top.env.s [SCO] DATA WRITE OP  addr:24, wdata:2340038594 arr_wr:2340038594
# ----------------------------------------------------------------
# UVM_INFO ../uvc/env/apb_ram_driver.sv(78) @ 14470: uvm_test_top.env.a.d [DRV] mode:readd, addr:26, wdata:3114081344, rdata:0, slverr:0
# UVM_INFO ../uvc/env/apb_ram_scoreboard.sv(47) @ 14510: uvm_test_top.env.s [SCO] DATA MATCHED : addr:26, rdata:0
# ----------------------------------------------------------------
# UVM_INFO ../uvc/env/apb_ram_driver.sv(64) @ 14530: uvm_test_top.env.a.d [DRV] mode:writed, addr:15, wdata:1344701737, rdata:0, slverr:0
# UVM_INFO ../uvc/env/apb_ram_scoreboard.sv(34) @ 14570: uvm_test_top.env.s [SCO] DATA WRITE OP  addr:15, wdata:1344701737 arr_wr:1344701737
# ----------------------------------------------------------------
# UVM_INFO ../uvc/env/apb_ram_driver.sv(78) @ 14590: uvm_test_top.env.a.d [DRV] mode:readd, addr:1, wdata:3504429282, rdata:0, slverr:0
# UVM_INFO ../uvc/env/apb_ram_scoreboard.sv(47) @ 14630: uvm_test_top.env.s [SCO] DATA MATCHED : addr:1, rdata:3377184582
# ----------------------------------------------------------------
# UVM_INFO ../uvc/env/apb_ram_driver.sv(64) @ 14650: uvm_test_top.env.a.d [DRV] mode:writed, addr:16, wdata:618081166, rdata:0, slverr:0
# UVM_INFO ../uvc/env/apb_ram_scoreboard.sv(34) @ 14690: uvm_test_top.env.s [SCO] DATA WRITE OP  addr:16, wdata:618081166 arr_wr:618081166
# ----------------------------------------------------------------
# UVM_INFO ../uvc/env/apb_ram_driver.sv(78) @ 14710: uvm_test_top.env.a.d [DRV] mode:readd, addr:2, wdata:3257605076, rdata:0, slverr:0
# UVM_INFO ../uvc/env/apb_ram_scoreboard.sv(47) @ 14750: uvm_test_top.env.s [SCO] DATA MATCHED : addr:2, rdata:366698312
# ----------------------------------------------------------------
# UVM_INFO ../uvc/env/apb_ram_driver.sv(64) @ 14770: uvm_test_top.env.a.d [DRV] mode:writed, addr:3, wdata:1662967228, rdata:0, slverr:0
# UVM_INFO ../uvc/env/apb_ram_scoreboard.sv(34) @ 14810: uvm_test_top.env.s [SCO] DATA WRITE OP  addr:3, wdata:1662967228 arr_wr:1662967228
# ----------------------------------------------------------------
# UVM_INFO ../uvc/env/apb_ram_driver.sv(78) @ 14830: uvm_test_top.env.a.d [DRV] mode:readd, addr:20, wdata:3518125057, rdata:0, slverr:0
# UVM_INFO ../uvc/env/apb_ram_scoreboard.sv(47) @ 14870: uvm_test_top.env.s [SCO] DATA MATCHED : addr:20, rdata:341366704
# ----------------------------------------------------------------
# UVM_INFO ../uvc/env/apb_ram_driver.sv(64) @ 14890: uvm_test_top.env.a.d [DRV] mode:writed, addr:20, wdata:3476777684, rdata:0, slverr:0
# UVM_INFO ../uvc/env/apb_ram_scoreboard.sv(34) @ 14930: uvm_test_top.env.s [SCO] DATA WRITE OP  addr:20, wdata:3476777684 arr_wr:3476777684
# ----------------------------------------------------------------
# UVM_INFO ../uvc/env/apb_ram_driver.sv(78) @ 14950: uvm_test_top.env.a.d [DRV] mode:readd, addr:14, wdata:3831083377, rdata:0, slverr:0
# UVM_INFO ../uvc/env/apb_ram_scoreboard.sv(47) @ 14990: uvm_test_top.env.s [SCO] DATA MATCHED : addr:14, rdata:3615637079
# ----------------------------------------------------------------
# UVM_INFO ../uvc/env/apb_ram_driver.sv(64) @ 15010: uvm_test_top.env.a.d [DRV] mode:writed, addr:6, wdata:4192189047, rdata:0, slverr:0
# UVM_INFO ../uvc/env/apb_ram_scoreboard.sv(34) @ 15050: uvm_test_top.env.s [SCO] DATA WRITE OP  addr:6, wdata:4192189047 arr_wr:4192189047
# ----------------------------------------------------------------
# UVM_INFO ../uvc/env/apb_ram_driver.sv(78) @ 15070: uvm_test_top.env.a.d [DRV] mode:readd, addr:29, wdata:2463681163, rdata:0, slverr:0
# UVM_INFO ../uvc/env/apb_ram_scoreboard.sv(47) @ 15110: uvm_test_top.env.s [SCO] DATA MATCHED : addr:29, rdata:1720201703
# ----------------------------------------------------------------
# UVM_INFO ../uvc/env/apb_ram_driver.sv(64) @ 15130: uvm_test_top.env.a.d [DRV] mode:writed, addr:3, wdata:3648932716, rdata:0, slverr:0
# UVM_INFO ../uvc/env/apb_ram_scoreboard.sv(34) @ 15170: uvm_test_top.env.s [SCO] DATA WRITE OP  addr:3, wdata:3648932716 arr_wr:3648932716
# ----------------------------------------------------------------
# UVM_INFO ../uvc/env/apb_ram_driver.sv(78) @ 15190: uvm_test_top.env.a.d [DRV] mode:readd, addr:5, wdata:356788921, rdata:0, slverr:0
# UVM_INFO ../uvc/env/apb_ram_scoreboard.sv(47) @ 15230: uvm_test_top.env.s [SCO] DATA MATCHED : addr:5, rdata:705636355
# ----------------------------------------------------------------
# UVM_INFO ../uvc/env/apb_ram_driver.sv(64) @ 15250: uvm_test_top.env.a.d [DRV] mode:writed, addr:28, wdata:2547012978, rdata:0, slverr:0
# UVM_INFO ../uvc/env/apb_ram_scoreboard.sv(34) @ 15290: uvm_test_top.env.s [SCO] DATA WRITE OP  addr:28, wdata:2547012978 arr_wr:2547012978
# ----------------------------------------------------------------
# UVM_INFO ../uvc/env/apb_ram_driver.sv(78) @ 15310: uvm_test_top.env.a.d [DRV] mode:readd, addr:30, wdata:1329980781, rdata:0, slverr:0
# UVM_INFO ../uvc/env/apb_ram_scoreboard.sv(47) @ 15350: uvm_test_top.env.s [SCO] DATA MATCHED : addr:30, rdata:4131507890
# ----------------------------------------------------------------
# UVM_INFO ../uvc/env/apb_ram_driver.sv(64) @ 15370: uvm_test_top.env.a.d [DRV] mode:writed, addr:3, wdata:1074660464, rdata:0, slverr:0
# UVM_INFO ../uvc/env/apb_ram_scoreboard.sv(34) @ 15410: uvm_test_top.env.s [SCO] DATA WRITE OP  addr:3, wdata:1074660464 arr_wr:1074660464
# ----------------------------------------------------------------
# UVM_INFO ../uvc/env/apb_ram_driver.sv(78) @ 15430: uvm_test_top.env.a.d [DRV] mode:readd, addr:31, wdata:2006491870, rdata:0, slverr:0
# UVM_INFO ../uvc/env/apb_ram_scoreboard.sv(47) @ 15470: uvm_test_top.env.s [SCO] DATA MATCHED : addr:31, rdata:3262606895
# ----------------------------------------------------------------
# UVM_INFO ../uvc/env/apb_ram_driver.sv(64) @ 15490: uvm_test_top.env.a.d [DRV] mode:writed, addr:18, wdata:1473610374, rdata:0, slverr:0
# UVM_INFO ../uvc/env/apb_ram_scoreboard.sv(34) @ 15530: uvm_test_top.env.s [SCO] DATA WRITE OP  addr:18, wdata:1473610374 arr_wr:1473610374
# ----------------------------------------------------------------
# UVM_INFO ../uvc/env/apb_ram_driver.sv(78) @ 15550: uvm_test_top.env.a.d [DRV] mode:readd, addr:0, wdata:3675634804, rdata:0, slverr:0
# UVM_INFO ../uvc/env/apb_ram_scoreboard.sv(47) @ 15590: uvm_test_top.env.s [SCO] DATA MATCHED : addr:0, rdata:1988183800
# ----------------------------------------------------------------
# UVM_INFO ../uvc/env/apb_ram_driver.sv(64) @ 15610: uvm_test_top.env.a.d [DRV] mode:writed, addr:5, wdata:423372607, rdata:0, slverr:0
# UVM_INFO ../uvc/env/apb_ram_scoreboard.sv(34) @ 15650: uvm_test_top.env.s [SCO] DATA WRITE OP  addr:5, wdata:423372607 arr_wr:423372607
# ----------------------------------------------------------------
# UVM_INFO ../uvc/env/apb_ram_driver.sv(78) @ 15670: uvm_test_top.env.a.d [DRV] mode:readd, addr:3, wdata:1940862873, rdata:0, slverr:0
# UVM_INFO ../uvc/env/apb_ram_scoreboard.sv(47) @ 15710: uvm_test_top.env.s [SCO] DATA MATCHED : addr:3, rdata:1074660464
# ----------------------------------------------------------------
# UVM_INFO ../uvc/env/apb_ram_driver.sv(64) @ 15730: uvm_test_top.env.a.d [DRV] mode:writed, addr:11, wdata:2155171696, rdata:0, slverr:0
# UVM_INFO ../uvc/env/apb_ram_scoreboard.sv(34) @ 15770: uvm_test_top.env.s [SCO] DATA WRITE OP  addr:11, wdata:2155171696 arr_wr:2155171696
# ----------------------------------------------------------------
# UVM_INFO ../uvc/env/apb_ram_driver.sv(78) @ 15790: uvm_test_top.env.a.d [DRV] mode:readd, addr:28, wdata:215577032, rdata:0, slverr:0
# UVM_INFO ../uvc/env/apb_ram_scoreboard.sv(47) @ 15830: uvm_test_top.env.s [SCO] DATA MATCHED : addr:28, rdata:2547012978
# ----------------------------------------------------------------
# UVM_INFO ../uvc/env/apb_ram_driver.sv(64) @ 15850: uvm_test_top.env.a.d [DRV] mode:writed, addr:8, wdata:1836484439, rdata:0, slverr:0
# UVM_INFO ../uvc/env/apb_ram_scoreboard.sv(34) @ 15890: uvm_test_top.env.s [SCO] DATA WRITE OP  addr:8, wdata:1836484439 arr_wr:1836484439
# ----------------------------------------------------------------
# UVM_INFO ../uvc/env/apb_ram_driver.sv(78) @ 15910: uvm_test_top.env.a.d [DRV] mode:readd, addr:15, wdata:2284292051, rdata:0, slverr:0
# UVM_INFO ../uvc/env/apb_ram_scoreboard.sv(47) @ 15950: uvm_test_top.env.s [SCO] DATA MATCHED : addr:15, rdata:1344701737
# ----------------------------------------------------------------
# UVM_INFO ../uvc/env/apb_ram_driver.sv(64) @ 15970: uvm_test_top.env.a.d [DRV] mode:writed, addr:9, wdata:3575331075, rdata:0, slverr:0
# UVM_INFO ../uvc/env/apb_ram_scoreboard.sv(34) @ 16010: uvm_test_top.env.s [SCO] DATA WRITE OP  addr:9, wdata:3575331075 arr_wr:3575331075
# ----------------------------------------------------------------
# UVM_INFO ../uvc/env/apb_ram_driver.sv(78) @ 16030: uvm_test_top.env.a.d [DRV] mode:readd, addr:22, wdata:1889047233, rdata:0, slverr:0
# UVM_INFO ../uvc/env/apb_ram_scoreboard.sv(47) @ 16070: uvm_test_top.env.s [SCO] DATA MATCHED : addr:22, rdata:2148780082
# ----------------------------------------------------------------
# UVM_INFO ../uvc/env/apb_ram_driver.sv(64) @ 16090: uvm_test_top.env.a.d [DRV] mode:writed, addr:25, wdata:357225797, rdata:0, slverr:0
# UVM_INFO ../uvc/env/apb_ram_scoreboard.sv(34) @ 16130: uvm_test_top.env.s [SCO] DATA WRITE OP  addr:25, wdata:357225797 arr_wr:357225797
# ----------------------------------------------------------------
# UVM_INFO ../uvc/env/apb_ram_driver.sv(78) @ 16150: uvm_test_top.env.a.d [DRV] mode:readd, addr:5, wdata:367611927, rdata:0, slverr:0
# UVM_INFO ../uvc/env/apb_ram_scoreboard.sv(47) @ 16190: uvm_test_top.env.s [SCO] DATA MATCHED : addr:5, rdata:423372607
# ----------------------------------------------------------------
# UVM_INFO ../uvc/env/apb_ram_driver.sv(64) @ 16210: uvm_test_top.env.a.d [DRV] mode:writed, addr:0, wdata:117515580, rdata:0, slverr:0
# UVM_INFO ../uvc/env/apb_ram_scoreboard.sv(34) @ 16250: uvm_test_top.env.s [SCO] DATA WRITE OP  addr:0, wdata:117515580 arr_wr:117515580
# ----------------------------------------------------------------
# UVM_INFO ../uvc/env/apb_ram_driver.sv(78) @ 16270: uvm_test_top.env.a.d [DRV] mode:readd, addr:10, wdata:483861035, rdata:0, slverr:0
# UVM_INFO ../uvc/env/apb_ram_scoreboard.sv(47) @ 16310: uvm_test_top.env.s [SCO] DATA MATCHED : addr:10, rdata:1555312539
# ----------------------------------------------------------------
# UVM_INFO ../uvc/env/apb_ram_driver.sv(64) @ 16330: uvm_test_top.env.a.d [DRV] mode:writed, addr:5, wdata:3915576309, rdata:0, slverr:0
# UVM_INFO ../uvc/env/apb_ram_scoreboard.sv(34) @ 16370: uvm_test_top.env.s [SCO] DATA WRITE OP  addr:5, wdata:3915576309 arr_wr:3915576309
# ----------------------------------------------------------------
# UVM_INFO ../uvc/env/apb_ram_driver.sv(78) @ 16390: uvm_test_top.env.a.d [DRV] mode:readd, addr:0, wdata:175302509, rdata:0, slverr:0
# UVM_INFO ../uvc/env/apb_ram_scoreboard.sv(47) @ 16430: uvm_test_top.env.s [SCO] DATA MATCHED : addr:0, rdata:117515580
# ----------------------------------------------------------------
# UVM_INFO ../uvc/env/apb_ram_driver.sv(64) @ 16450: uvm_test_top.env.a.d [DRV] mode:writed, addr:0, wdata:269179499, rdata:0, slverr:0
# UVM_INFO ../uvc/env/apb_ram_scoreboard.sv(34) @ 16490: uvm_test_top.env.s [SCO] DATA WRITE OP  addr:0, wdata:269179499 arr_wr:269179499
# ----------------------------------------------------------------
# UVM_INFO ../uvc/env/apb_ram_driver.sv(78) @ 16510: uvm_test_top.env.a.d [DRV] mode:readd, addr:11, wdata:3914234469, rdata:0, slverr:0
# UVM_INFO ../uvc/env/apb_ram_scoreboard.sv(47) @ 16550: uvm_test_top.env.s [SCO] DATA MATCHED : addr:11, rdata:2155171696
# ----------------------------------------------------------------
# UVM_INFO ../uvc/env/apb_ram_driver.sv(64) @ 16570: uvm_test_top.env.a.d [DRV] mode:writed, addr:13, wdata:3888811384, rdata:0, slverr:0
# UVM_INFO ../uvc/env/apb_ram_scoreboard.sv(34) @ 16610: uvm_test_top.env.s [SCO] DATA WRITE OP  addr:13, wdata:3888811384 arr_wr:3888811384
# ----------------------------------------------------------------
# UVM_INFO ../uvc/env/apb_ram_driver.sv(78) @ 16630: uvm_test_top.env.a.d [DRV] mode:readd, addr:11, wdata:3260137173, rdata:0, slverr:0
# UVM_INFO ../uvc/env/apb_ram_scoreboard.sv(47) @ 16670: uvm_test_top.env.s [SCO] DATA MATCHED : addr:11, rdata:2155171696
# ----------------------------------------------------------------
# UVM_INFO ../uvc/env/apb_ram_driver.sv(64) @ 16690: uvm_test_top.env.a.d [DRV] mode:writed, addr:24, wdata:2963198345, rdata:0, slverr:0
# UVM_INFO ../uvc/env/apb_ram_scoreboard.sv(34) @ 16730: uvm_test_top.env.s [SCO] DATA WRITE OP  addr:24, wdata:2963198345 arr_wr:2963198345
# ----------------------------------------------------------------
# UVM_INFO ../uvc/env/apb_ram_driver.sv(78) @ 16750: uvm_test_top.env.a.d [DRV] mode:readd, addr:25, wdata:832843957, rdata:0, slverr:0
# UVM_INFO ../uvc/env/apb_ram_scoreboard.sv(47) @ 16790: uvm_test_top.env.s [SCO] DATA MATCHED : addr:25, rdata:357225797
# ----------------------------------------------------------------
# UVM_INFO ../uvc/env/apb_ram_driver.sv(64) @ 16810: uvm_test_top.env.a.d [DRV] mode:writed, addr:1, wdata:2753651396, rdata:0, slverr:0
# UVM_INFO ../uvc/env/apb_ram_scoreboard.sv(34) @ 16850: uvm_test_top.env.s [SCO] DATA WRITE OP  addr:1, wdata:2753651396 arr_wr:2753651396
# ----------------------------------------------------------------
# UVM_INFO ../uvc/env/apb_ram_driver.sv(78) @ 16870: uvm_test_top.env.a.d [DRV] mode:readd, addr:29, wdata:1804215672, rdata:0, slverr:0
# UVM_INFO ../uvc/env/apb_ram_scoreboard.sv(47) @ 16910: uvm_test_top.env.s [SCO] DATA MATCHED : addr:29, rdata:1720201703
# ----------------------------------------------------------------
# UVM_INFO ../uvc/env/apb_ram_driver.sv(64) @ 16930: uvm_test_top.env.a.d [DRV] mode:writed, addr:3, wdata:4236392080, rdata:0, slverr:0
# UVM_INFO ../uvc/env/apb_ram_scoreboard.sv(34) @ 16970: uvm_test_top.env.s [SCO] DATA WRITE OP  addr:3, wdata:4236392080 arr_wr:4236392080
# ----------------------------------------------------------------
# UVM_INFO ../uvc/env/apb_ram_driver.sv(78) @ 16990: uvm_test_top.env.a.d [DRV] mode:readd, addr:1, wdata:837281894, rdata:0, slverr:0
# UVM_INFO ../uvc/env/apb_ram_scoreboard.sv(47) @ 17030: uvm_test_top.env.s [SCO] DATA MATCHED : addr:1, rdata:2753651396
# ----------------------------------------------------------------
# UVM_INFO ../uvc/env/apb_ram_driver.sv(64) @ 17050: uvm_test_top.env.a.d [DRV] mode:writed, addr:10, wdata:3086327623, rdata:0, slverr:0
# UVM_INFO ../uvc/env/apb_ram_scoreboard.sv(34) @ 17090: uvm_test_top.env.s [SCO] DATA WRITE OP  addr:10, wdata:3086327623 arr_wr:3086327623
# ----------------------------------------------------------------
# UVM_INFO ../uvc/env/apb_ram_driver.sv(78) @ 17110: uvm_test_top.env.a.d [DRV] mode:readd, addr:11, wdata:2272011320, rdata:0, slverr:0
# UVM_INFO ../uvc/env/apb_ram_scoreboard.sv(47) @ 17150: uvm_test_top.env.s [SCO] DATA MATCHED : addr:11, rdata:2155171696
# ----------------------------------------------------------------
