# vsim -c -coverage top "+UVM_TESTNAME=write_err_test" -voptargs="+acc" -assertdebug -l logs/write_err_test.log -do "coverage save -onexit cov/write_err_test.ucdb; run -all; quit" 
# Start time: 17:27:08 on Jan 15,2026
# ** Note: (vsim-8009) Loading existing optimized design _opt
# //  Questa Sim-64
# //  Version 10.7c win64 Aug 18 2018
# //
# //  Copyright 1991-2018 Mentor Graphics Corporation
# //  All Rights Reserved.
# //
# //  QuestaSim and its associated documentation contain trade
# //  secrets and commercial or financial information that are the property of
# //  Mentor Graphics Corporation and are privileged, confidential,
# //  and exempt from disclosure under the Freedom of Information Act,
# //  5 U.S.C. Section 552. Furthermore, this information
# //  is prohibited from disclosure under the Trade Secrets Act,
# //  18 U.S.C. Section 1905.
# //
# Loading sv_std.std
# Loading work.apb_if(fast)
# Loading mtiUvm.uvm_pkg
# Loading work.apb_ram_pkg(fast)
# Loading work.top_sv_unit(fast)
# Loading work.top(fast)
# Loading work.apb_if(fast)
# Loading work.apb_ram(fast)
# Loading mtiUvm.questa_uvm_pkg(fast)
# Loading D:/questasim_b_install/uvm-1.1d\win64\uvm_dpi.dll
# coverage save -onexit cov/write_err_test.ucdb
#  run -all
# ----------------------------------------------------------------
# UVM-1.1d
# (C) 2007-2013 Mentor Graphics Corporation
# (C) 2007-2013 Cadence Design Systems, Inc.
# (C) 2006-2013 Synopsys, Inc.
# (C) 2011-2013 Cypress Semiconductor Corp.
# ----------------------------------------------------------------
# 
#   ***********       IMPORTANT RELEASE NOTES         ************
# 
#   You are using a version of the UVM library that has been compiled
#   with `UVM_NO_DEPRECATED undefined.
#   See http://www.eda.org/svdb/view.php?id=3313 for more details.
# 
#   You are using a version of the UVM library that has been compiled
#   with `UVM_OBJECT_MUST_HAVE_CONSTRUCTOR undefined.
#   See http://www.eda.org/svdb/view.php?id=3770 for more details.
# 
#       (Specify +UVM_NO_RELNOTES to turn off this notice)
# 
# UVM_INFO verilog_src/questa_uvm_pkg-1.2/src/questa_uvm_pkg.sv(215) @ 0: reporter [Questa UVM] QUESTA_UVM-1.2.3
# UVM_INFO verilog_src/questa_uvm_pkg-1.2/src/questa_uvm_pkg.sv(216) @ 0: reporter [Questa UVM]  questa_uvm::init(+struct)
# UVM_INFO @ 0: reporter [RNTST] Running test write_err_test...
# UVM_INFO @ 0: reporter [UVMTOP] UVM testbench topology:
# --------------------------------------------------------------
# Name                       Type                    Size  Value
# --------------------------------------------------------------
# uvm_test_top               write_err_test          -     @471 
#   env                      apb_ram_env             -     @478 
#     a                      apb_ram_agent           -     @485 
#       d                    apb_ram_driver          -     @523 
#         rsp_port           uvm_analysis_port       -     @538 
#         seq_item_port      uvm_seq_item_pull_port  -     @530 
#       m                    apb_ram_monitor         -     @516 
#         item_send_port     uvm_analysis_port       -     @664 
#       seqr                 uvm_sequencer           -     @546 
#         rsp_export         uvm_analysis_export     -     @553 
#         seq_item_export    uvm_seq_item_pull_imp   -     @647 
#         arbitration_queue  array                   0     -    
#         lock_queue         array                   0     -    
#         num_last_reqs      integral                32    'd1  
#         num_last_rsps      integral                32    'd1  
#     cov                    apb_ram_coverage        -     @499 
#       analysis_imp         uvm_analysis_imp        -     @506 
#     s                      apb_ram_scoreboard      -     @492 
#       item_recv_imp        uvm_analysis_imp        -     @678 
# --------------------------------------------------------------
# 
# UVM_INFO ../uvc/env/apb_ram_driver.sv(32) @ 0: uvm_test_top.env.a.d [DRV] System Reset : Start of Simulation
# UVM_INFO ../uvc/env/apb_ram_driver.sv(32) @ 10: uvm_test_top.env.a.d [DRV] System Reset : Start of Simulation
# UVM_INFO ../uvc/env/apb_ram_scoreboard.sv(23) @ 10: uvm_test_top.env.s [SCO] SYSTEM RESET DETECTED
# ----------------------------------------------------------------
# UVM_INFO ../uvc/env/apb_ram_scoreboard.sv(23) @ 30: uvm_test_top.env.s [SCO] SYSTEM RESET DETECTED
# ----------------------------------------------------------------
# UVM_INFO ../uvc/env/apb_ram_driver.sv(32) @ 30: uvm_test_top.env.a.d [DRV] System Reset : Start of Simulation
# UVM_INFO ../uvc/env/apb_ram_driver.sv(32) @ 50: uvm_test_top.env.a.d [DRV] System Reset : Start of Simulation
# UVM_INFO ../uvc/env/apb_ram_scoreboard.sv(23) @ 50: uvm_test_top.env.s [SCO] SYSTEM RESET DETECTED
# ----------------------------------------------------------------
# UVM_INFO ../uvc/env/apb_ram_scoreboard.sv(23) @ 70: uvm_test_top.env.s [SCO] SYSTEM RESET DETECTED
# ----------------------------------------------------------------
# UVM_INFO ../uvc/env/apb_ram_driver.sv(32) @ 70: uvm_test_top.env.a.d [DRV] System Reset : Start of Simulation
# UVM_INFO ../uvc/env/apb_ram_scoreboard.sv(23) @ 90: uvm_test_top.env.s [SCO] SYSTEM RESET DETECTED
# ----------------------------------------------------------------
# UVM_INFO ../uvc/env/apb_ram_driver.sv(64) @ 110: uvm_test_top.env.a.d [DRV] mode:writed, addr:41, wdata:3777248807, rdata:0, slverr:0
# ** Error: APB SVA: Invalid address but PSLVERR not asserted
#    Time: 130 ns Started: 130 ns  Scope: top.vif.a_slverr_on_invalid_addr File: ../tb/apb_if.sv Line: 76 Expr: pslverr
# ** Error: APB SVA: Invalid address but PSLVERR not asserted
#    Time: 150 ns Started: 150 ns  Scope: top.vif.a_slverr_on_invalid_addr File: ../tb/apb_if.sv Line: 76 Expr: pslverr
# UVM_INFO ../uvc/env/apb_ram_scoreboard.sv(29) @ 170: uvm_test_top.env.s [SCO] SLV ERROR during WRITE OP
# ----------------------------------------------------------------
# UVM_INFO ../uvc/env/apb_ram_driver.sv(64) @ 190: uvm_test_top.env.a.d [DRV] mode:writed, addr:70, wdata:2285552022, rdata:0, slverr:0
# ** Error: APB SVA: Invalid address but PSLVERR not asserted
#    Time: 210 ns Started: 210 ns  Scope: top.vif.a_slverr_on_invalid_addr File: ../tb/apb_if.sv Line: 76 Expr: pslverr
# UVM_INFO ../uvc/env/apb_ram_scoreboard.sv(29) @ 230: uvm_test_top.env.s [SCO] SLV ERROR during WRITE OP
# ----------------------------------------------------------------
# UVM_INFO ../uvc/env/apb_ram_driver.sv(64) @ 250: uvm_test_top.env.a.d [DRV] mode:writed, addr:90, wdata:4281818903, rdata:0, slverr:0
# ** Error: APB SVA: Invalid address but PSLVERR not asserted
#    Time: 270 ns Started: 270 ns  Scope: top.vif.a_slverr_on_invalid_addr File: ../tb/apb_if.sv Line: 76 Expr: pslverr
# UVM_INFO ../uvc/env/apb_ram_scoreboard.sv(29) @ 290: uvm_test_top.env.s [SCO] SLV ERROR during WRITE OP
# ----------------------------------------------------------------
# UVM_INFO ../uvc/env/apb_ram_driver.sv(64) @ 310: uvm_test_top.env.a.d [DRV] mode:writed, addr:84, wdata:1051481594, rdata:0, slverr:0
# ** Error: APB SVA: Invalid address but PSLVERR not asserted
#    Time: 330 ns Started: 330 ns  Scope: top.vif.a_slverr_on_invalid_addr File: ../tb/apb_if.sv Line: 76 Expr: pslverr
# UVM_INFO ../uvc/env/apb_ram_scoreboard.sv(29) @ 350: uvm_test_top.env.s [SCO] SLV ERROR during WRITE OP
# ----------------------------------------------------------------
# UVM_INFO ../uvc/env/apb_ram_driver.sv(64) @ 370: uvm_test_top.env.a.d [DRV] mode:writed, addr:63, wdata:1430793613, rdata:0, slverr:0
# ** Error: APB SVA: Invalid address but PSLVERR not asserted
#    Time: 390 ns Started: 390 ns  Scope: top.vif.a_slverr_on_invalid_addr File: ../tb/apb_if.sv Line: 76 Expr: pslverr
# UVM_INFO ../uvc/env/apb_ram_scoreboard.sv(29) @ 410: uvm_test_top.env.s [SCO] SLV ERROR during WRITE OP
# ----------------------------------------------------------------
# UVM_INFO ../uvc/env/apb_ram_driver.sv(64) @ 430: uvm_test_top.env.a.d [DRV] mode:writed, addr:54, wdata:3171452607, rdata:0, slverr:0
# ** Error: APB SVA: Invalid address but PSLVERR not asserted
#    Time: 450 ns Started: 450 ns  Scope: top.vif.a_slverr_on_invalid_addr File: ../tb/apb_if.sv Line: 76 Expr: pslverr
# UVM_INFO ../uvc/env/apb_ram_scoreboard.sv(29) @ 470: uvm_test_top.env.s [SCO] SLV ERROR during WRITE OP
# ----------------------------------------------------------------
# UVM_INFO ../uvc/env/apb_ram_driver.sv(64) @ 490: uvm_test_top.env.a.d [DRV] mode:writed, addr:64, wdata:2337079852, rdata:0, slverr:0
# ** Error: APB SVA: Invalid address but PSLVERR not asserted
#    Time: 510 ns Started: 510 ns  Scope: top.vif.a_slverr_on_invalid_addr File: ../tb/apb_if.sv Line: 76 Expr: pslverr
# UVM_INFO ../uvc/env/apb_ram_scoreboard.sv(29) @ 530: uvm_test_top.env.s [SCO] SLV ERROR during WRITE OP
# ----------------------------------------------------------------
# UVM_INFO ../uvc/env/apb_ram_driver.sv(64) @ 550: uvm_test_top.env.a.d [DRV] mode:writed, addr:81, wdata:3353941321, rdata:0, slverr:0
# ** Error: APB SVA: Invalid address but PSLVERR not asserted
#    Time: 570 ns Started: 570 ns  Scope: top.vif.a_slverr_on_invalid_addr File: ../tb/apb_if.sv Line: 76 Expr: pslverr
# UVM_INFO ../uvc/env/apb_ram_scoreboard.sv(29) @ 590: uvm_test_top.env.s [SCO] SLV ERROR during WRITE OP
# ----------------------------------------------------------------
# UVM_INFO ../uvc/env/apb_ram_driver.sv(64) @ 610: uvm_test_top.env.a.d [DRV] mode:writed, addr:47, wdata:2729742768, rdata:0, slverr:0
# ** Error: APB SVA: Invalid address but PSLVERR not asserted
#    Time: 630 ns Started: 630 ns  Scope: top.vif.a_slverr_on_invalid_addr File: ../tb/apb_if.sv Line: 76 Expr: pslverr
# UVM_INFO ../uvc/env/apb_ram_scoreboard.sv(29) @ 650: uvm_test_top.env.s [SCO] SLV ERROR during WRITE OP
# ----------------------------------------------------------------
# UVM_INFO ../uvc/env/apb_ram_driver.sv(64) @ 670: uvm_test_top.env.a.d [DRV] mode:writed, addr:66, wdata:2528254870, rdata:0, slverr:0
# ** Error: APB SVA: Invalid address but PSLVERR not asserted
#    Time: 690 ns Started: 690 ns  Scope: top.vif.a_slverr_on_invalid_addr File: ../tb/apb_if.sv Line: 76 Expr: pslverr
# UVM_INFO ../uvc/env/apb_ram_scoreboard.sv(29) @ 710: uvm_test_top.env.s [SCO] SLV ERROR during WRITE OP
# ----------------------------------------------------------------
# UVM_INFO ../uvc/env/apb_ram_driver.sv(64) @ 730: uvm_test_top.env.a.d [DRV] mode:writed, addr:68, wdata:2518359749, rdata:0, slverr:0
# ** Error: APB SVA: Invalid address but PSLVERR not asserted
#    Time: 750 ns Started: 750 ns  Scope: top.vif.a_slverr_on_invalid_addr File: ../tb/apb_if.sv Line: 76 Expr: pslverr
# UVM_INFO ../uvc/env/apb_ram_scoreboard.sv(29) @ 770: uvm_test_top.env.s [SCO] SLV ERROR during WRITE OP
# ----------------------------------------------------------------
# UVM_INFO ../uvc/env/apb_ram_driver.sv(64) @ 790: uvm_test_top.env.a.d [DRV] mode:writed, addr:85, wdata:1888893185, rdata:0, slverr:0
# ** Error: APB SVA: Invalid address but PSLVERR not asserted
#    Time: 810 ns Started: 810 ns  Scope: top.vif.a_slverr_on_invalid_addr File: ../tb/apb_if.sv Line: 76 Expr: pslverr
# UVM_INFO ../uvc/env/apb_ram_scoreboard.sv(29) @ 830: uvm_test_top.env.s [SCO] SLV ERROR during WRITE OP
# ----------------------------------------------------------------
# UVM_INFO ../uvc/env/apb_ram_driver.sv(64) @ 850: uvm_test_top.env.a.d [DRV] mode:writed, addr:68, wdata:2912452960, rdata:0, slverr:0
# ** Error: APB SVA: Invalid address but PSLVERR not asserted
#    Time: 870 ns Started: 870 ns  Scope: top.vif.a_slverr_on_invalid_addr File: ../tb/apb_if.sv Line: 76 Expr: pslverr
# UVM_INFO ../uvc/env/apb_ram_scoreboard.sv(29) @ 890: uvm_test_top.env.s [SCO] SLV ERROR during WRITE OP
# ----------------------------------------------------------------
# UVM_INFO ../uvc/env/apb_ram_driver.sv(64) @ 910: uvm_test_top.env.a.d [DRV] mode:writed, addr:70, wdata:4191012750, rdata:0, slverr:0
# ** Error: APB SVA: Invalid address but PSLVERR not asserted
#    Time: 930 ns Started: 930 ns  Scope: top.vif.a_slverr_on_invalid_addr File: ../tb/apb_if.sv Line: 76 Expr: pslverr
# UVM_INFO ../uvc/env/apb_ram_scoreboard.sv(29) @ 950: uvm_test_top.env.s [SCO] SLV ERROR during WRITE OP
# ----------------------------------------------------------------
# UVM_INFO ../uvc/env/apb_ram_driver.sv(64) @ 970: uvm_test_top.env.a.d [DRV] mode:writed, addr:40, wdata:3892367503, rdata:0, slverr:0
# ** Error: APB SVA: Invalid address but PSLVERR not asserted
#    Time: 990 ns Started: 990 ns  Scope: top.vif.a_slverr_on_invalid_addr File: ../tb/apb_if.sv Line: 76 Expr: pslverr
# UVM_INFO ../uvc/env/apb_ram_scoreboard.sv(29) @ 1010: uvm_test_top.env.s [SCO] SLV ERROR during WRITE OP
# ----------------------------------------------------------------
# UVM_INFO ../uvc/env/apb_ram_driver.sv(64) @ 1030: uvm_test_top.env.a.d [DRV] mode:writed, addr:45, wdata:1981648891, rdata:0, slverr:0
# ** Error: APB SVA: Invalid address but PSLVERR not asserted
#    Time: 1050 ns Started: 1050 ns  Scope: top.vif.a_slverr_on_invalid_addr File: ../tb/apb_if.sv Line: 76 Expr: pslverr
# UVM_INFO ../uvc/env/apb_ram_scoreboard.sv(29) @ 1070: uvm_test_top.env.s [SCO] SLV ERROR during WRITE OP
# ----------------------------------------------------------------
# UVM_INFO ../uvc/env/apb_ram_driver.sv(64) @ 1090: uvm_test_top.env.a.d [DRV] mode:writed, addr:75, wdata:48946881, rdata:0, slverr:0
# ** Error: APB SVA: Invalid address but PSLVERR not asserted
#    Time: 1110 ns Started: 1110 ns  Scope: top.vif.a_slverr_on_invalid_addr File: ../tb/apb_if.sv Line: 76 Expr: pslverr
# UVM_INFO ../uvc/env/apb_ram_scoreboard.sv(29) @ 1130: uvm_test_top.env.s [SCO] SLV ERROR during WRITE OP
# ----------------------------------------------------------------
# UVM_INFO ../uvc/env/apb_ram_driver.sv(64) @ 1150: uvm_test_top.env.a.d [DRV] mode:writed, addr:88, wdata:3254385158, rdata:0, slverr:0
# ** Error: APB SVA: Invalid address but PSLVERR not asserted
#    Time: 1170 ns Started: 1170 ns  Scope: top.vif.a_slverr_on_invalid_addr File: ../tb/apb_if.sv Line: 76 Expr: pslverr
# UVM_INFO ../uvc/env/apb_ram_scoreboard.sv(29) @ 1190: uvm_test_top.env.s [SCO] SLV ERROR during WRITE OP
# ----------------------------------------------------------------
# UVM_INFO ../uvc/env/apb_ram_driver.sv(64) @ 1210: uvm_test_top.env.a.d [DRV] mode:writed, addr:70, wdata:3524547497, rdata:0, slverr:0
# ** Error: APB SVA: Invalid address but PSLVERR not asserted
#    Time: 1230 ns Started: 1230 ns  Scope: top.vif.a_slverr_on_invalid_addr File: ../tb/apb_if.sv Line: 76 Expr: pslverr
# UVM_INFO ../uvc/env/apb_ram_scoreboard.sv(29) @ 1250: uvm_test_top.env.s [SCO] SLV ERROR during WRITE OP
# ----------------------------------------------------------------
# UVM_INFO ../uvc/env/apb_ram_driver.sv(64) @ 1270: uvm_test_top.env.a.d [DRV] mode:writed, addr:92, wdata:3483282630, rdata:0, slverr:0
# ** Error: APB SVA: Invalid address but PSLVERR not asserted
#    Time: 1290 ns Started: 1290 ns  Scope: top.vif.a_slverr_on_invalid_addr File: ../tb/apb_if.sv Line: 76 Expr: pslverr
# UVM_INFO ../uvc/env/apb_ram_scoreboard.sv(29) @ 1310: uvm_test_top.env.s [SCO] SLV ERROR during WRITE OP
# ----------------------------------------------------------------
# UVM_INFO ../uvc/env/apb_ram_driver.sv(64) @ 1330: uvm_test_top.env.a.d [DRV] mode:writed, addr:94, wdata:2414337454, rdata:0, slverr:0
# ** Error: APB SVA: Invalid address but PSLVERR not asserted
#    Time: 1350 ns Started: 1350 ns  Scope: top.vif.a_slverr_on_invalid_addr File: ../tb/apb_if.sv Line: 76 Expr: pslverr
# UVM_INFO ../uvc/env/apb_ram_scoreboard.sv(29) @ 1370: uvm_test_top.env.s [SCO] SLV ERROR during WRITE OP
# ----------------------------------------------------------------
# UVM_INFO ../uvc/env/apb_ram_driver.sv(64) @ 1390: uvm_test_top.env.a.d [DRV] mode:writed, addr:73, wdata:114161314, rdata:0, slverr:0
# ** Error: APB SVA: Invalid address but PSLVERR not asserted
#    Time: 1410 ns Started: 1410 ns  Scope: top.vif.a_slverr_on_invalid_addr File: ../tb/apb_if.sv Line: 76 Expr: pslverr
# UVM_INFO ../uvc/env/apb_ram_scoreboard.sv(29) @ 1430: uvm_test_top.env.s [SCO] SLV ERROR during WRITE OP
# ----------------------------------------------------------------
# UVM_INFO ../uvc/env/apb_ram_driver.sv(64) @ 1450: uvm_test_top.env.a.d [DRV] mode:writed, addr:32, wdata:2384080836, rdata:0, slverr:0
# ** Error: APB SVA: Invalid address but PSLVERR not asserted
#    Time: 1470 ns Started: 1470 ns  Scope: top.vif.a_slverr_on_invalid_addr File: ../tb/apb_if.sv Line: 76 Expr: pslverr
# UVM_INFO ../uvc/env/apb_ram_scoreboard.sv(29) @ 1490: uvm_test_top.env.s [SCO] SLV ERROR during WRITE OP
# ----------------------------------------------------------------
# UVM_INFO ../uvc/env/apb_ram_driver.sv(64) @ 1510: uvm_test_top.env.a.d [DRV] mode:writed, addr:35, wdata:616727898, rdata:0, slverr:0
# ** Error: APB SVA: Invalid address but PSLVERR not asserted
#    Time: 1530 ns Started: 1530 ns  Scope: top.vif.a_slverr_on_invalid_addr File: ../tb/apb_if.sv Line: 76 Expr: pslverr
# UVM_INFO ../uvc/env/apb_ram_scoreboard.sv(29) @ 1550: uvm_test_top.env.s [SCO] SLV ERROR during WRITE OP
# ----------------------------------------------------------------
# UVM_INFO ../uvc/env/apb_ram_driver.sv(64) @ 1570: uvm_test_top.env.a.d [DRV] mode:writed, addr:71, wdata:4230033719, rdata:0, slverr:0
# ** Error: APB SVA: Invalid address but PSLVERR not asserted
#    Time: 1590 ns Started: 1590 ns  Scope: top.vif.a_slverr_on_invalid_addr File: ../tb/apb_if.sv Line: 76 Expr: pslverr
# UVM_INFO ../uvc/env/apb_ram_scoreboard.sv(29) @ 1610: uvm_test_top.env.s [SCO] SLV ERROR during WRITE OP
# ----------------------------------------------------------------
# UVM_INFO ../uvc/env/apb_ram_driver.sv(64) @ 1630: uvm_test_top.env.a.d [DRV] mode:writed, addr:56, wdata:3617292467, rdata:0, slverr:0
# ** Error: APB SVA: Invalid address but PSLVERR not asserted
#    Time: 1650 ns Started: 1650 ns  Scope: top.vif.a_slverr_on_invalid_addr File: ../tb/apb_if.sv Line: 76 Expr: pslverr
# UVM_INFO ../uvc/env/apb_ram_scoreboard.sv(29) @ 1670: uvm_test_top.env.s [SCO] SLV ERROR during WRITE OP
# ----------------------------------------------------------------
# UVM_INFO ../uvc/env/apb_ram_driver.sv(64) @ 1690: uvm_test_top.env.a.d [DRV] mode:writed, addr:84, wdata:938073799, rdata:0, slverr:0
# ** Error: APB SVA: Invalid address but PSLVERR not asserted
#    Time: 1710 ns Started: 1710 ns  Scope: top.vif.a_slverr_on_invalid_addr File: ../tb/apb_if.sv Line: 76 Expr: pslverr
# UVM_INFO ../uvc/env/apb_ram_scoreboard.sv(29) @ 1730: uvm_test_top.env.s [SCO] SLV ERROR during WRITE OP
# ----------------------------------------------------------------
# UVM_INFO ../uvc/env/apb_ram_driver.sv(64) @ 1750: uvm_test_top.env.a.d [DRV] mode:writed, addr:51, wdata:3644635849, rdata:0, slverr:0
# ** Error: APB SVA: Invalid address but PSLVERR not asserted
#    Time: 1770 ns Started: 1770 ns  Scope: top.vif.a_slverr_on_invalid_addr File: ../tb/apb_if.sv Line: 76 Expr: pslverr
# UVM_INFO ../uvc/env/apb_ram_scoreboard.sv(29) @ 1790: uvm_test_top.env.s [SCO] SLV ERROR during WRITE OP
# ----------------------------------------------------------------
# UVM_INFO ../uvc/env/apb_ram_driver.sv(64) @ 1810: uvm_test_top.env.a.d [DRV] mode:writed, addr:59, wdata:2295673994, rdata:0, slverr:0
# ** Error: APB SVA: Invalid address but PSLVERR not asserted
#    Time: 1830 ns Started: 1830 ns  Scope: top.vif.a_slverr_on_invalid_addr File: ../tb/apb_if.sv Line: 76 Expr: pslverr
# UVM_INFO ../uvc/env/apb_ram_scoreboard.sv(29) @ 1850: uvm_test_top.env.s [SCO] SLV ERROR during WRITE OP
# ----------------------------------------------------------------
# UVM_INFO ../uvc/env/apb_ram_driver.sv(64) @ 1870: uvm_test_top.env.a.d [DRV] mode:writed, addr:78, wdata:4236171247, rdata:0, slverr:0
# ** Error: APB SVA: Invalid address but PSLVERR not asserted
#    Time: 1890 ns Started: 1890 ns  Scope: top.vif.a_slverr_on_invalid_addr File: ../tb/apb_if.sv Line: 76 Expr: pslverr
# UVM_INFO ../uvc/env/apb_ram_scoreboard.sv(29) @ 1910: uvm_test_top.env.s [SCO] SLV ERROR during WRITE OP
# ----------------------------------------------------------------
# UVM_INFO ../uvc/env/apb_ram_driver.sv(64) @ 1930: uvm_test_top.env.a.d [DRV] mode:writed, addr:62, wdata:812920989, rdata:0, slverr:0
# ** Error: APB SVA: Invalid address but PSLVERR not asserted
#    Time: 1950 ns Started: 1950 ns  Scope: top.vif.a_slverr_on_invalid_addr File: ../tb/apb_if.sv Line: 76 Expr: pslverr
# UVM_INFO ../uvc/env/apb_ram_scoreboard.sv(29) @ 1970: uvm_test_top.env.s [SCO] SLV ERROR during WRITE OP
# ----------------------------------------------------------------
# UVM_INFO ../uvc/env/apb_ram_driver.sv(64) @ 1990: uvm_test_top.env.a.d [DRV] mode:writed, addr:82, wdata:842572445, rdata:0, slverr:0
# ** Error: APB SVA: Invalid address but PSLVERR not asserted
#    Time: 2010 ns Started: 2010 ns  Scope: top.vif.a_slverr_on_invalid_addr File: ../tb/apb_if.sv Line: 76 Expr: pslverr
# UVM_INFO ../uvc/env/apb_ram_scoreboard.sv(29) @ 2030: uvm_test_top.env.s [SCO] SLV ERROR during WRITE OP
# ----------------------------------------------------------------
# UVM_INFO ../uvc/env/apb_ram_driver.sv(64) @ 2050: uvm_test_top.env.a.d [DRV] mode:writed, addr:76, wdata:1408008632, rdata:0, slverr:0
# ** Error: APB SVA: Invalid address but PSLVERR not asserted
#    Time: 2070 ns Started: 2070 ns  Scope: top.vif.a_slverr_on_invalid_addr File: ../tb/apb_if.sv Line: 76 Expr: pslverr
# UVM_INFO ../uvc/env/apb_ram_scoreboard.sv(29) @ 2090: uvm_test_top.env.s [SCO] SLV ERROR during WRITE OP
# ----------------------------------------------------------------
# UVM_INFO ../uvc/env/apb_ram_driver.sv(64) @ 2110: uvm_test_top.env.a.d [DRV] mode:writed, addr:85, wdata:1728061235, rdata:0, slverr:0
# ** Error: APB SVA: Invalid address but PSLVERR not asserted
#    Time: 2130 ns Started: 2130 ns  Scope: top.vif.a_slverr_on_invalid_addr File: ../tb/apb_if.sv Line: 76 Expr: pslverr
# UVM_INFO ../uvc/env/apb_ram_scoreboard.sv(29) @ 2150: uvm_test_top.env.s [SCO] SLV ERROR during WRITE OP
# ----------------------------------------------------------------
# UVM_INFO ../uvc/env/apb_ram_driver.sv(64) @ 2170: uvm_test_top.env.a.d [DRV] mode:writed, addr:45, wdata:2370165681, rdata:0, slverr:0
# ** Error: APB SVA: Invalid address but PSLVERR not asserted
#    Time: 2190 ns Started: 2190 ns  Scope: top.vif.a_slverr_on_invalid_addr File: ../tb/apb_if.sv Line: 76 Expr: pslverr
# UVM_INFO ../uvc/env/apb_ram_scoreboard.sv(29) @ 2210: uvm_test_top.env.s [SCO] SLV ERROR during WRITE OP
# ----------------------------------------------------------------
# UVM_INFO ../uvc/env/apb_ram_driver.sv(64) @ 2230: uvm_test_top.env.a.d [DRV] mode:writed, addr:66, wdata:3534544320, rdata:0, slverr:0
# ** Error: APB SVA: Invalid address but PSLVERR not asserted
#    Time: 2250 ns Started: 2250 ns  Scope: top.vif.a_slverr_on_invalid_addr File: ../tb/apb_if.sv Line: 76 Expr: pslverr
# UVM_INFO ../uvc/env/apb_ram_scoreboard.sv(29) @ 2270: uvm_test_top.env.s [SCO] SLV ERROR during WRITE OP
# ----------------------------------------------------------------
# UVM_INFO ../uvc/env/apb_ram_driver.sv(64) @ 2290: uvm_test_top.env.a.d [DRV] mode:writed, addr:91, wdata:2442776198, rdata:0, slverr:0
# ** Error: APB SVA: Invalid address but PSLVERR not asserted
#    Time: 2310 ns Started: 2310 ns  Scope: top.vif.a_slverr_on_invalid_addr File: ../tb/apb_if.sv Line: 76 Expr: pslverr
# UVM_INFO ../uvc/env/apb_ram_scoreboard.sv(29) @ 2330: uvm_test_top.env.s [SCO] SLV ERROR during WRITE OP
# ----------------------------------------------------------------
# UVM_INFO ../uvc/env/apb_ram_driver.sv(64) @ 2350: uvm_test_top.env.a.d [DRV] mode:writed, addr:50, wdata:2614382870, rdata:0, slverr:0
# ** Error: APB SVA: Invalid address but PSLVERR not asserted
#    Time: 2370 ns Started: 2370 ns  Scope: top.vif.a_slverr_on_invalid_addr File: ../tb/apb_if.sv Line: 76 Expr: pslverr
# UVM_INFO ../uvc/env/apb_ram_scoreboard.sv(29) @ 2390: uvm_test_top.env.s [SCO] SLV ERROR during WRITE OP
# ----------------------------------------------------------------
# UVM_INFO ../uvc/env/apb_ram_driver.sv(64) @ 2410: uvm_test_top.env.a.d [DRV] mode:writed, addr:92, wdata:1814544769, rdata:0, slverr:0
# ** Error: APB SVA: Invalid address but PSLVERR not asserted
#    Time: 2430 ns Started: 2430 ns  Scope: top.vif.a_slverr_on_invalid_addr File: ../tb/apb_if.sv Line: 76 Expr: pslverr
# UVM_INFO ../uvc/env/apb_ram_scoreboard.sv(29) @ 2450: uvm_test_top.env.s [SCO] SLV ERROR during WRITE OP
# ----------------------------------------------------------------
# UVM_INFO ../uvc/env/apb_ram_driver.sv(64) @ 2470: uvm_test_top.env.a.d [DRV] mode:writed, addr:80, wdata:2646141795, rdata:0, slverr:0
# ** Error: APB SVA: Invalid address but PSLVERR not asserted
#    Time: 2490 ns Started: 2490 ns  Scope: top.vif.a_slverr_on_invalid_addr File: ../tb/apb_if.sv Line: 76 Expr: pslverr
# UVM_INFO ../uvc/env/apb_ram_scoreboard.sv(29) @ 2510: uvm_test_top.env.s [SCO] SLV ERROR during WRITE OP
# ----------------------------------------------------------------
# UVM_INFO ../uvc/env/apb_ram_driver.sv(64) @ 2530: uvm_test_top.env.a.d [DRV] mode:writed, addr:46, wdata:1225673380, rdata:0, slverr:0
# ** Error: APB SVA: Invalid address but PSLVERR not asserted
#    Time: 2550 ns Started: 2550 ns  Scope: top.vif.a_slverr_on_invalid_addr File: ../tb/apb_if.sv Line: 76 Expr: pslverr
# UVM_INFO ../uvc/env/apb_ram_scoreboard.sv(29) @ 2570: uvm_test_top.env.s [SCO] SLV ERROR during WRITE OP
# ----------------------------------------------------------------
# UVM_INFO ../uvc/env/apb_ram_driver.sv(64) @ 2590: uvm_test_top.env.a.d [DRV] mode:writed, addr:89, wdata:1967671799, rdata:0, slverr:0
# ** Error: APB SVA: Invalid address but PSLVERR not asserted
#    Time: 2610 ns Started: 2610 ns  Scope: top.vif.a_slverr_on_invalid_addr File: ../tb/apb_if.sv Line: 76 Expr: pslverr
# UVM_INFO ../uvc/env/apb_ram_scoreboard.sv(29) @ 2630: uvm_test_top.env.s [SCO] SLV ERROR during WRITE OP
# ----------------------------------------------------------------
# UVM_INFO ../uvc/env/apb_ram_driver.sv(64) @ 2650: uvm_test_top.env.a.d [DRV] mode:writed, addr:92, wdata:2412323114, rdata:0, slverr:0
# ** Error: APB SVA: Invalid address but PSLVERR not asserted
#    Time: 2670 ns Started: 2670 ns  Scope: top.vif.a_slverr_on_invalid_addr File: ../tb/apb_if.sv Line: 76 Expr: pslverr
# UVM_INFO ../uvc/env/apb_ram_scoreboard.sv(29) @ 2690: uvm_test_top.env.s [SCO] SLV ERROR during WRITE OP
# ----------------------------------------------------------------
# UVM_INFO ../uvc/env/apb_ram_driver.sv(64) @ 2710: uvm_test_top.env.a.d [DRV] mode:writed, addr:78, wdata:1496865130, rdata:0, slverr:0
# ** Error: APB SVA: Invalid address but PSLVERR not asserted
#    Time: 2730 ns Started: 2730 ns  Scope: top.vif.a_slverr_on_invalid_addr File: ../tb/apb_if.sv Line: 76 Expr: pslverr
# UVM_INFO ../uvc/env/apb_ram_scoreboard.sv(29) @ 2750: uvm_test_top.env.s [SCO] SLV ERROR during WRITE OP
# ----------------------------------------------------------------
# UVM_INFO ../uvc/env/apb_ram_driver.sv(64) @ 2770: uvm_test_top.env.a.d [DRV] mode:writed, addr:38, wdata:3007791890, rdata:0, slverr:0
# ** Error: APB SVA: Invalid address but PSLVERR not asserted
#    Time: 2790 ns Started: 2790 ns  Scope: top.vif.a_slverr_on_invalid_addr File: ../tb/apb_if.sv Line: 76 Expr: pslverr
# UVM_INFO ../uvc/env/apb_ram_scoreboard.sv(29) @ 2810: uvm_test_top.env.s [SCO] SLV ERROR during WRITE OP
# ----------------------------------------------------------------
# UVM_INFO ../uvc/env/apb_ram_driver.sv(64) @ 2830: uvm_test_top.env.a.d [DRV] mode:writed, addr:47, wdata:1654212079, rdata:0, slverr:0
# ** Error: APB SVA: Invalid address but PSLVERR not asserted
#    Time: 2850 ns Started: 2850 ns  Scope: top.vif.a_slverr_on_invalid_addr File: ../tb/apb_if.sv Line: 76 Expr: pslverr
# UVM_INFO ../uvc/env/apb_ram_scoreboard.sv(29) @ 2870: uvm_test_top.env.s [SCO] SLV ERROR during WRITE OP
# ----------------------------------------------------------------
# UVM_INFO ../uvc/env/apb_ram_driver.sv(64) @ 2890: uvm_test_top.env.a.d [DRV] mode:writed, addr:68, wdata:3373696266, rdata:0, slverr:0
# ** Error: APB SVA: Invalid address but PSLVERR not asserted
#    Time: 2910 ns Started: 2910 ns  Scope: top.vif.a_slverr_on_invalid_addr File: ../tb/apb_if.sv Line: 76 Expr: pslverr
# UVM_INFO ../uvc/env/apb_ram_scoreboard.sv(29) @ 2930: uvm_test_top.env.s [SCO] SLV ERROR during WRITE OP
# ----------------------------------------------------------------
# UVM_INFO ../uvc/env/apb_ram_driver.sv(64) @ 2950: uvm_test_top.env.a.d [DRV] mode:writed, addr:79, wdata:302863272, rdata:0, slverr:0
# ** Error: APB SVA: Invalid address but PSLVERR not asserted
#    Time: 2970 ns Started: 2970 ns  Scope: top.vif.a_slverr_on_invalid_addr File: ../tb/apb_if.sv Line: 76 Expr: pslverr
# UVM_INFO ../uvc/env/apb_ram_scoreboard.sv(29) @ 2990: uvm_test_top.env.s [SCO] SLV ERROR during WRITE OP
# ----------------------------------------------------------------
# UVM_INFO ../uvc/env/apb_ram_driver.sv(64) @ 3010: uvm_test_top.env.a.d [DRV] mode:writed, addr:41, wdata:2912410914, rdata:0, slverr:0
# ** Error: APB SVA: Invalid address but PSLVERR not asserted
#    Time: 3030 ns Started: 3030 ns  Scope: top.vif.a_slverr_on_invalid_addr File: ../tb/apb_if.sv Line: 76 Expr: pslverr
# UVM_INFO ../uvc/env/apb_ram_scoreboard.sv(29) @ 3050: uvm_test_top.env.s [SCO] SLV ERROR during WRITE OP
# ----------------------------------------------------------------
# UVM_INFO ../uvc/env/apb_ram_driver.sv(64) @ 3070: uvm_test_top.env.a.d [DRV] mode:writed, addr:46, wdata:1966490993, rdata:0, slverr:0
# ** Error: APB SVA: Invalid address but PSLVERR not asserted
#    Time: 3090 ns Started: 3090 ns  Scope: top.vif.a_slverr_on_invalid_addr File: ../tb/apb_if.sv Line: 76 Expr: pslverr
# UVM_INFO ../uvc/env/apb_ram_scoreboard.sv(29) @ 3110: uvm_test_top.env.s [SCO] SLV ERROR during WRITE OP
# ----------------------------------------------------------------
# UVM_INFO ../uvc/env/apb_ram_driver.sv(64) @ 3130: uvm_test_top.env.a.d [DRV] mode:writed, addr:61, wdata:709999995, rdata:0, slverr:0
# ** Error: APB SVA: Invalid address but PSLVERR not asserted
#    Time: 3150 ns Started: 3150 ns  Scope: top.vif.a_slverr_on_invalid_addr File: ../tb/apb_if.sv Line: 76 Expr: pslverr
# UVM_INFO ../uvc/env/apb_ram_scoreboard.sv(29) @ 3170: uvm_test_top.env.s [SCO] SLV ERROR during WRITE OP
# ----------------------------------------------------------------
# UVM_INFO ../uvc/env/apb_ram_driver.sv(64) @ 3190: uvm_test_top.env.a.d [DRV] mode:writed, addr:53, wdata:1381038493, rdata:0, slverr:0
# ** Error: APB SVA: Invalid address but PSLVERR not asserted
#    Time: 3210 ns Started: 3210 ns  Scope: top.vif.a_slverr_on_invalid_addr File: ../tb/apb_if.sv Line: 76 Expr: pslverr
# UVM_INFO ../uvc/env/apb_ram_scoreboard.sv(29) @ 3230: uvm_test_top.env.s [SCO] SLV ERROR during WRITE OP
# ----------------------------------------------------------------
# UVM_INFO ../uvc/env/apb_ram_driver.sv(64) @ 3250: uvm_test_top.env.a.d [DRV] mode:writed, addr:86, wdata:4144100939, rdata:0, slverr:0
# ** Error: APB SVA: Invalid address but PSLVERR not asserted
#    Time: 3270 ns Started: 3270 ns  Scope: top.vif.a_slverr_on_invalid_addr File: ../tb/apb_if.sv Line: 76 Expr: pslverr
# UVM_INFO ../uvc/env/apb_ram_scoreboard.sv(29) @ 3290: uvm_test_top.env.s [SCO] SLV ERROR during WRITE OP
# ----------------------------------------------------------------
# UVM_INFO ../uvc/env/apb_ram_driver.sv(64) @ 3310: uvm_test_top.env.a.d [DRV] mode:writed, addr:79, wdata:892512377, rdata:0, slverr:0
# ** Error: APB SVA: Invalid address but PSLVERR not asserted
#    Time: 3330 ns Started: 3330 ns  Scope: top.vif.a_slverr_on_invalid_addr File: ../tb/apb_if.sv Line: 76 Expr: pslverr
# UVM_INFO ../uvc/env/apb_ram_scoreboard.sv(29) @ 3350: uvm_test_top.env.s [SCO] SLV ERROR during WRITE OP
# ----------------------------------------------------------------
# UVM_INFO ../uvc/env/apb_ram_driver.sv(64) @ 3370: uvm_test_top.env.a.d [DRV] mode:writed, addr:74, wdata:3578429675, rdata:0, slverr:0
# ** Error: APB SVA: Invalid address but PSLVERR not asserted
#    Time: 3390 ns Started: 3390 ns  Scope: top.vif.a_slverr_on_invalid_addr File: ../tb/apb_if.sv Line: 76 Expr: pslverr
# UVM_INFO ../uvc/env/apb_ram_scoreboard.sv(29) @ 3410: uvm_test_top.env.s [SCO] SLV ERROR during WRITE OP
# ----------------------------------------------------------------
# UVM_INFO ../uvc/env/apb_ram_driver.sv(64) @ 3430: uvm_test_top.env.a.d [DRV] mode:writed, addr:97, wdata:2582529987, rdata:0, slverr:0
# ** Error: APB SVA: Invalid address but PSLVERR not asserted
#    Time: 3450 ns Started: 3450 ns  Scope: top.vif.a_slverr_on_invalid_addr File: ../tb/apb_if.sv Line: 76 Expr: pslverr
# UVM_INFO ../uvc/env/apb_ram_scoreboard.sv(29) @ 3470: uvm_test_top.env.s [SCO] SLV ERROR during WRITE OP
# ----------------------------------------------------------------
# UVM_INFO ../uvc/env/apb_ram_driver.sv(64) @ 3490: uvm_test_top.env.a.d [DRV] mode:writed, addr:63, wdata:3985947039, rdata:0, slverr:0
# ** Error: APB SVA: Invalid address but PSLVERR not asserted
#    Time: 3510 ns Started: 3510 ns  Scope: top.vif.a_slverr_on_invalid_addr File: ../tb/apb_if.sv Line: 76 Expr: pslverr
# UVM_INFO ../uvc/env/apb_ram_scoreboard.sv(29) @ 3530: uvm_test_top.env.s [SCO] SLV ERROR during WRITE OP
# ----------------------------------------------------------------
# UVM_INFO ../uvc/env/apb_ram_driver.sv(64) @ 3550: uvm_test_top.env.a.d [DRV] mode:writed, addr:93, wdata:2766433457, rdata:0, slverr:0
# ** Error: APB SVA: Invalid address but PSLVERR not asserted
#    Time: 3570 ns Started: 3570 ns  Scope: top.vif.a_slverr_on_invalid_addr File: ../tb/apb_if.sv Line: 76 Expr: pslverr
# UVM_INFO ../uvc/env/apb_ram_scoreboard.sv(29) @ 3590: uvm_test_top.env.s [SCO] SLV ERROR during WRITE OP
# ----------------------------------------------------------------
# UVM_INFO ../uvc/env/apb_ram_driver.sv(64) @ 3610: uvm_test_top.env.a.d [DRV] mode:writed, addr:73, wdata:4007790511, rdata:0, slverr:0
# ** Error: APB SVA: Invalid address but PSLVERR not asserted
#    Time: 3630 ns Started: 3630 ns  Scope: top.vif.a_slverr_on_invalid_addr File: ../tb/apb_if.sv Line: 76 Expr: pslverr
# UVM_INFO ../uvc/env/apb_ram_scoreboard.sv(29) @ 3650: uvm_test_top.env.s [SCO] SLV ERROR during WRITE OP
# ----------------------------------------------------------------
# UVM_INFO ../uvc/env/apb_ram_driver.sv(64) @ 3670: uvm_test_top.env.a.d [DRV] mode:writed, addr:53, wdata:736522590, rdata:0, slverr:0
# ** Error: APB SVA: Invalid address but PSLVERR not asserted
#    Time: 3690 ns Started: 3690 ns  Scope: top.vif.a_slverr_on_invalid_addr File: ../tb/apb_if.sv Line: 76 Expr: pslverr
# UVM_INFO ../uvc/env/apb_ram_scoreboard.sv(29) @ 3710: uvm_test_top.env.s [SCO] SLV ERROR during WRITE OP
# ----------------------------------------------------------------
# UVM_INFO ../uvc/env/apb_ram_driver.sv(64) @ 3730: uvm_test_top.env.a.d [DRV] mode:writed, addr:77, wdata:4022774536, rdata:0, slverr:0
# ** Error: APB SVA: Invalid address but PSLVERR not asserted
#    Time: 3750 ns Started: 3750 ns  Scope: top.vif.a_slverr_on_invalid_addr File: ../tb/apb_if.sv Line: 76 Expr: pslverr
# UVM_INFO ../uvc/env/apb_ram_scoreboard.sv(29) @ 3770: uvm_test_top.env.s [SCO] SLV ERROR during WRITE OP
# ----------------------------------------------------------------
# UVM_INFO ../uvc/env/apb_ram_driver.sv(64) @ 3790: uvm_test_top.env.a.d [DRV] mode:writed, addr:38, wdata:3012510934, rdata:0, slverr:0
# ** Error: APB SVA: Invalid address but PSLVERR not asserted
#    Time: 3810 ns Started: 3810 ns  Scope: top.vif.a_slverr_on_invalid_addr File: ../tb/apb_if.sv Line: 76 Expr: pslverr
# UVM_INFO ../uvc/env/apb_ram_scoreboard.sv(29) @ 3830: uvm_test_top.env.s [SCO] SLV ERROR during WRITE OP
# ----------------------------------------------------------------
# UVM_INFO ../uvc/env/apb_ram_driver.sv(64) @ 3850: uvm_test_top.env.a.d [DRV] mode:writed, addr:77, wdata:3611130099, rdata:0, slverr:0
# ** Error: APB SVA: Invalid address but PSLVERR not asserted
#    Time: 3870 ns Started: 3870 ns  Scope: top.vif.a_slverr_on_invalid_addr File: ../tb/apb_if.sv Line: 76 Expr: pslverr
# UVM_INFO ../uvc/env/apb_ram_scoreboard.sv(29) @ 3890: uvm_test_top.env.s [SCO] SLV ERROR during WRITE OP
# ----------------------------------------------------------------
# UVM_INFO ../uvc/env/apb_ram_driver.sv(64) @ 3910: uvm_test_top.env.a.d [DRV] mode:writed, addr:36, wdata:573725882, rdata:0, slverr:0
# ** Error: APB SVA: Invalid address but PSLVERR not asserted
#    Time: 3930 ns Started: 3930 ns  Scope: top.vif.a_slverr_on_invalid_addr File: ../tb/apb_if.sv Line: 76 Expr: pslverr
# UVM_INFO ../uvc/env/apb_ram_scoreboard.sv(29) @ 3950: uvm_test_top.env.s [SCO] SLV ERROR during WRITE OP
# ----------------------------------------------------------------
# UVM_INFO ../uvc/env/apb_ram_driver.sv(64) @ 3970: uvm_test_top.env.a.d [DRV] mode:writed, addr:73, wdata:2726042824, rdata:0, slverr:0
# ** Error: APB SVA: Invalid address but PSLVERR not asserted
#    Time: 3990 ns Started: 3990 ns  Scope: top.vif.a_slverr_on_invalid_addr File: ../tb/apb_if.sv Line: 76 Expr: pslverr
# UVM_INFO ../uvc/env/apb_ram_scoreboard.sv(29) @ 4010: uvm_test_top.env.s [SCO] SLV ERROR during WRITE OP
# ----------------------------------------------------------------
# UVM_INFO ../uvc/env/apb_ram_driver.sv(64) @ 4030: uvm_test_top.env.a.d [DRV] mode:writed, addr:92, wdata:1096171635, rdata:0, slverr:0
# ** Error: APB SVA: Invalid address but PSLVERR not asserted
#    Time: 4050 ns Started: 4050 ns  Scope: top.vif.a_slverr_on_invalid_addr File: ../tb/apb_if.sv Line: 76 Expr: pslverr
# UVM_INFO ../uvc/env/apb_ram_scoreboard.sv(29) @ 4070: uvm_test_top.env.s [SCO] SLV ERROR during WRITE OP
# ----------------------------------------------------------------
# UVM_INFO ../uvc/env/apb_ram_driver.sv(64) @ 4090: uvm_test_top.env.a.d [DRV] mode:writed, addr:94, wdata:4116889447, rdata:0, slverr:0
# ** Error: APB SVA: Invalid address but PSLVERR not asserted
#    Time: 4110 ns Started: 4110 ns  Scope: top.vif.a_slverr_on_invalid_addr File: ../tb/apb_if.sv Line: 76 Expr: pslverr
# UVM_INFO ../uvc/env/apb_ram_scoreboard.sv(29) @ 4130: uvm_test_top.env.s [SCO] SLV ERROR during WRITE OP
# ----------------------------------------------------------------
# UVM_INFO ../uvc/env/apb_ram_driver.sv(64) @ 4150: uvm_test_top.env.a.d [DRV] mode:writed, addr:94, wdata:1609299050, rdata:0, slverr:0
# ** Error: APB SVA: Invalid address but PSLVERR not asserted
#    Time: 4170 ns Started: 4170 ns  Scope: top.vif.a_slverr_on_invalid_addr File: ../tb/apb_if.sv Line: 76 Expr: pslverr
# UVM_INFO ../uvc/env/apb_ram_scoreboard.sv(29) @ 4190: uvm_test_top.env.s [SCO] SLV ERROR during WRITE OP
# ----------------------------------------------------------------
# UVM_INFO ../uvc/env/apb_ram_driver.sv(64) @ 4210: uvm_test_top.env.a.d [DRV] mode:writed, addr:82, wdata:1721030693, rdata:0, slverr:0
# ** Error: APB SVA: Invalid address but PSLVERR not asserted
#    Time: 4230 ns Started: 4230 ns  Scope: top.vif.a_slverr_on_invalid_addr File: ../tb/apb_if.sv Line: 76 Expr: pslverr
# UVM_INFO ../uvc/env/apb_ram_scoreboard.sv(29) @ 4250: uvm_test_top.env.s [SCO] SLV ERROR during WRITE OP
# ----------------------------------------------------------------
# UVM_INFO ../uvc/env/apb_ram_driver.sv(64) @ 4270: uvm_test_top.env.a.d [DRV] mode:writed, addr:92, wdata:1907405854, rdata:0, slverr:0
# ** Error: APB SVA: Invalid address but PSLVERR not asserted
#    Time: 4290 ns Started: 4290 ns  Scope: top.vif.a_slverr_on_invalid_addr File: ../tb/apb_if.sv Line: 76 Expr: pslverr
# UVM_INFO ../uvc/env/apb_ram_scoreboard.sv(29) @ 4310: uvm_test_top.env.s [SCO] SLV ERROR during WRITE OP
# ----------------------------------------------------------------
# UVM_INFO ../uvc/env/apb_ram_driver.sv(64) @ 4330: uvm_test_top.env.a.d [DRV] mode:writed, addr:46, wdata:3615637079, rdata:0, slverr:0
# ** Error: APB SVA: Invalid address but PSLVERR not asserted
#    Time: 4350 ns Started: 4350 ns  Scope: top.vif.a_slverr_on_invalid_addr File: ../tb/apb_if.sv Line: 76 Expr: pslverr
# UVM_INFO ../uvc/env/apb_ram_scoreboard.sv(29) @ 4370: uvm_test_top.env.s [SCO] SLV ERROR during WRITE OP
# ----------------------------------------------------------------
# UVM_INFO ../uvc/env/apb_ram_driver.sv(64) @ 4390: uvm_test_top.env.a.d [DRV] mode:writed, addr:36, wdata:2567223576, rdata:0, slverr:0
# ** Error: APB SVA: Invalid address but PSLVERR not asserted
#    Time: 4410 ns Started: 4410 ns  Scope: top.vif.a_slverr_on_invalid_addr File: ../tb/apb_if.sv Line: 76 Expr: pslverr
# UVM_INFO ../uvc/env/apb_ram_scoreboard.sv(29) @ 4430: uvm_test_top.env.s [SCO] SLV ERROR during WRITE OP
# ----------------------------------------------------------------
# UVM_INFO ../uvc/env/apb_ram_driver.sv(64) @ 4450: uvm_test_top.env.a.d [DRV] mode:writed, addr:39, wdata:344372223, rdata:0, slverr:0
# ** Error: APB SVA: Invalid address but PSLVERR not asserted
#    Time: 4470 ns Started: 4470 ns  Scope: top.vif.a_slverr_on_invalid_addr File: ../tb/apb_if.sv Line: 76 Expr: pslverr
# UVM_INFO ../uvc/env/apb_ram_scoreboard.sv(29) @ 4490: uvm_test_top.env.s [SCO] SLV ERROR during WRITE OP
# ----------------------------------------------------------------
# UVM_INFO ../uvc/env/apb_ram_driver.sv(64) @ 4510: uvm_test_top.env.a.d [DRV] mode:writed, addr:47, wdata:847442581, rdata:0, slverr:0
# ** Error: APB SVA: Invalid address but PSLVERR not asserted
#    Time: 4530 ns Started: 4530 ns  Scope: top.vif.a_slverr_on_invalid_addr File: ../tb/apb_if.sv Line: 76 Expr: pslverr
# UVM_INFO ../uvc/env/apb_ram_scoreboard.sv(29) @ 4550: uvm_test_top.env.s [SCO] SLV ERROR during WRITE OP
# ----------------------------------------------------------------
# UVM_INFO ../uvc/env/apb_ram_driver.sv(64) @ 4570: uvm_test_top.env.a.d [DRV] mode:writed, addr:39, wdata:2856583018, rdata:0, slverr:0
# ** Error: APB SVA: Invalid address but PSLVERR not asserted
#    Time: 4590 ns Started: 4590 ns  Scope: top.vif.a_slverr_on_invalid_addr File: ../tb/apb_if.sv Line: 76 Expr: pslverr
# UVM_INFO ../uvc/env/apb_ram_scoreboard.sv(29) @ 4610: uvm_test_top.env.s [SCO] SLV ERROR during WRITE OP
# ----------------------------------------------------------------
# UVM_INFO ../uvc/env/apb_ram_driver.sv(64) @ 4630: uvm_test_top.env.a.d [DRV] mode:writed, addr:32, wdata:1640786469, rdata:0, slverr:0
# ** Error: APB SVA: Invalid address but PSLVERR not asserted
#    Time: 4650 ns Started: 4650 ns  Scope: top.vif.a_slverr_on_invalid_addr File: ../tb/apb_if.sv Line: 76 Expr: pslverr
# UVM_INFO ../uvc/env/apb_ram_scoreboard.sv(29) @ 4670: uvm_test_top.env.s [SCO] SLV ERROR during WRITE OP
# ----------------------------------------------------------------
# UVM_INFO ../uvc/env/apb_ram_driver.sv(64) @ 4690: uvm_test_top.env.a.d [DRV] mode:writed, addr:72, wdata:2759802914, rdata:0, slverr:0
# ** Error: APB SVA: Invalid address but PSLVERR not asserted
#    Time: 4710 ns Started: 4710 ns  Scope: top.vif.a_slverr_on_invalid_addr File: ../tb/apb_if.sv Line: 76 Expr: pslverr
# UVM_INFO ../uvc/env/apb_ram_scoreboard.sv(29) @ 4730: uvm_test_top.env.s [SCO] SLV ERROR during WRITE OP
# ----------------------------------------------------------------
# UVM_INFO ../uvc/env/apb_ram_driver.sv(64) @ 4750: uvm_test_top.env.a.d [DRV] mode:writed, addr:42, wdata:173840900, rdata:0, slverr:0
# ** Error: APB SVA: Invalid address but PSLVERR not asserted
#    Time: 4770 ns Started: 4770 ns  Scope: top.vif.a_slverr_on_invalid_addr File: ../tb/apb_if.sv Line: 76 Expr: pslverr
# UVM_INFO ../uvc/env/apb_ram_scoreboard.sv(29) @ 4790: uvm_test_top.env.s [SCO] SLV ERROR during WRITE OP
# ----------------------------------------------------------------
# UVM_INFO ../uvc/env/apb_ram_driver.sv(64) @ 4810: uvm_test_top.env.a.d [DRV] mode:writed, addr:40, wdata:3302395917, rdata:0, slverr:0
# ** Error: APB SVA: Invalid address but PSLVERR not asserted
#    Time: 4830 ns Started: 4830 ns  Scope: top.vif.a_slverr_on_invalid_addr File: ../tb/apb_if.sv Line: 76 Expr: pslverr
# UVM_INFO ../uvc/env/apb_ram_scoreboard.sv(29) @ 4850: uvm_test_top.env.s [SCO] SLV ERROR during WRITE OP
# ----------------------------------------------------------------
# UVM_INFO ../uvc/env/apb_ram_driver.sv(64) @ 4870: uvm_test_top.env.a.d [DRV] mode:writed, addr:96, wdata:3074316253, rdata:0, slverr:0
# ** Error: APB SVA: Invalid address but PSLVERR not asserted
#    Time: 4890 ns Started: 4890 ns  Scope: top.vif.a_slverr_on_invalid_addr File: ../tb/apb_if.sv Line: 76 Expr: pslverr
# UVM_INFO ../uvc/env/apb_ram_scoreboard.sv(29) @ 4910: uvm_test_top.env.s [SCO] SLV ERROR during WRITE OP
# ----------------------------------------------------------------
# UVM_INFO ../uvc/env/apb_ram_driver.sv(64) @ 4930: uvm_test_top.env.a.d [DRV] mode:writed, addr:42, wdata:3755934142, rdata:0, slverr:0
# ** Error: APB SVA: Invalid address but PSLVERR not asserted
#    Time: 4950 ns Started: 4950 ns  Scope: top.vif.a_slverr_on_invalid_addr File: ../tb/apb_if.sv Line: 76 Expr: pslverr
# UVM_INFO ../uvc/env/apb_ram_scoreboard.sv(29) @ 4970: uvm_test_top.env.s [SCO] SLV ERROR during WRITE OP
# ----------------------------------------------------------------
# UVM_INFO ../uvc/env/apb_ram_driver.sv(64) @ 4990: uvm_test_top.env.a.d [DRV] mode:writed, addr:73, wdata:2009335954, rdata:0, slverr:0
# ** Error: APB SVA: Invalid address but PSLVERR not asserted
#    Time: 5010 ns Started: 5010 ns  Scope: top.vif.a_slverr_on_invalid_addr File: ../tb/apb_if.sv Line: 76 Expr: pslverr
# UVM_INFO ../uvc/env/apb_ram_scoreboard.sv(29) @ 5030: uvm_test_top.env.s [SCO] SLV ERROR during WRITE OP
# ----------------------------------------------------------------
# UVM_INFO ../uvc/env/apb_ram_driver.sv(64) @ 5050: uvm_test_top.env.a.d [DRV] mode:writed, addr:87, wdata:3906754574, rdata:0, slverr:0
# ** Error: APB SVA: Invalid address but PSLVERR not asserted
#    Time: 5070 ns Started: 5070 ns  Scope: top.vif.a_slverr_on_invalid_addr File: ../tb/apb_if.sv Line: 76 Expr: pslverr
# UVM_INFO ../uvc/env/apb_ram_scoreboard.sv(29) @ 5090: uvm_test_top.env.s [SCO] SLV ERROR during WRITE OP
# ----------------------------------------------------------------
# UVM_INFO ../uvc/env/apb_ram_driver.sv(64) @ 5110: uvm_test_top.env.a.d [DRV] mode:writed, addr:58, wdata:1093583199, rdata:0, slverr:0
# ** Error: APB SVA: Invalid address but PSLVERR not asserted
#    Time: 5130 ns Started: 5130 ns  Scope: top.vif.a_slverr_on_invalid_addr File: ../tb/apb_if.sv Line: 76 Expr: pslverr
# UVM_INFO ../uvc/env/apb_ram_scoreboard.sv(29) @ 5150: uvm_test_top.env.s [SCO] SLV ERROR during WRITE OP
# ----------------------------------------------------------------
# UVM_INFO ../uvc/env/apb_ram_driver.sv(64) @ 5170: uvm_test_top.env.a.d [DRV] mode:writed, addr:40, wdata:2695237669, rdata:0, slverr:0
# ** Error: APB SVA: Invalid address but PSLVERR not asserted
#    Time: 5190 ns Started: 5190 ns  Scope: top.vif.a_slverr_on_invalid_addr File: ../tb/apb_if.sv Line: 76 Expr: pslverr
# UVM_INFO ../uvc/env/apb_ram_scoreboard.sv(29) @ 5210: uvm_test_top.env.s [SCO] SLV ERROR during WRITE OP
# ----------------------------------------------------------------
# UVM_INFO ../uvc/env/apb_ram_driver.sv(64) @ 5230: uvm_test_top.env.a.d [DRV] mode:writed, addr:91, wdata:1340967957, rdata:0, slverr:0
# ** Error: APB SVA: Invalid address but PSLVERR not asserted
#    Time: 5250 ns Started: 5250 ns  Scope: top.vif.a_slverr_on_invalid_addr File: ../tb/apb_if.sv Line: 76 Expr: pslverr
# UVM_INFO ../uvc/env/apb_ram_scoreboard.sv(29) @ 5270: uvm_test_top.env.s [SCO] SLV ERROR during WRITE OP
# ----------------------------------------------------------------
# UVM_INFO ../uvc/env/apb_ram_driver.sv(64) @ 5290: uvm_test_top.env.a.d [DRV] mode:writed, addr:44, wdata:3922692892, rdata:0, slverr:0
# ** Error: APB SVA: Invalid address but PSLVERR not asserted
#    Time: 5310 ns Started: 5310 ns  Scope: top.vif.a_slverr_on_invalid_addr File: ../tb/apb_if.sv Line: 76 Expr: pslverr
# UVM_INFO ../uvc/env/apb_ram_scoreboard.sv(29) @ 5330: uvm_test_top.env.s [SCO] SLV ERROR during WRITE OP
# ----------------------------------------------------------------
# UVM_INFO ../uvc/env/apb_ram_driver.sv(64) @ 5350: uvm_test_top.env.a.d [DRV] mode:writed, addr:72, wdata:1326557156, rdata:0, slverr:0
# ** Error: APB SVA: Invalid address but PSLVERR not asserted
#    Time: 5370 ns Started: 5370 ns  Scope: top.vif.a_slverr_on_invalid_addr File: ../tb/apb_if.sv Line: 76 Expr: pslverr
# UVM_INFO ../uvc/env/apb_ram_scoreboard.sv(29) @ 5390: uvm_test_top.env.s [SCO] SLV ERROR during WRITE OP
# ----------------------------------------------------------------
# UVM_INFO ../uvc/env/apb_ram_driver.sv(64) @ 5410: uvm_test_top.env.a.d [DRV] mode:writed, addr:87, wdata:4110560064, rdata:0, slverr:0
# ** Error: APB SVA: Invalid address but PSLVERR not asserted
#    Time: 5430 ns Started: 5430 ns  Scope: top.vif.a_slverr_on_invalid_addr File: ../tb/apb_if.sv Line: 76 Expr: pslverr
# UVM_INFO ../uvc/env/apb_ram_scoreboard.sv(29) @ 5450: uvm_test_top.env.s [SCO] SLV ERROR during WRITE OP
# ----------------------------------------------------------------
# UVM_INFO ../uvc/env/apb_ram_driver.sv(64) @ 5470: uvm_test_top.env.a.d [DRV] mode:writed, addr:37, wdata:1689707734, rdata:0, slverr:0
# ** Error: APB SVA: Invalid address but PSLVERR not asserted
#    Time: 5490 ns Started: 5490 ns  Scope: top.vif.a_slverr_on_invalid_addr File: ../tb/apb_if.sv Line: 76 Expr: pslverr
# UVM_INFO ../uvc/env/apb_ram_scoreboard.sv(29) @ 5510: uvm_test_top.env.s [SCO] SLV ERROR during WRITE OP
# ----------------------------------------------------------------
# UVM_INFO ../uvc/env/apb_ram_driver.sv(64) @ 5530: uvm_test_top.env.a.d [DRV] mode:writed, addr:48, wdata:3745644506, rdata:0, slverr:0
# ** Error: APB SVA: Invalid address but PSLVERR not asserted
#    Time: 5550 ns Started: 5550 ns  Scope: top.vif.a_slverr_on_invalid_addr File: ../tb/apb_if.sv Line: 76 Expr: pslverr
# UVM_INFO ../uvc/env/apb_ram_scoreboard.sv(29) @ 5570: uvm_test_top.env.s [SCO] SLV ERROR during WRITE OP
# ----------------------------------------------------------------
# UVM_INFO ../uvc/env/apb_ram_driver.sv(64) @ 5590: uvm_test_top.env.a.d [DRV] mode:writed, addr:99, wdata:1687574432, rdata:0, slverr:0
# ** Error: APB SVA: Invalid address but PSLVERR not asserted
#    Time: 5610 ns Started: 5610 ns  Scope: top.vif.a_slverr_on_invalid_addr File: ../tb/apb_if.sv Line: 76 Expr: pslverr
# UVM_INFO ../uvc/env/apb_ram_scoreboard.sv(29) @ 5630: uvm_test_top.env.s [SCO] SLV ERROR during WRITE OP
# ----------------------------------------------------------------
# UVM_INFO ../uvc/env/apb_ram_driver.sv(64) @ 5650: uvm_test_top.env.a.d [DRV] mode:writed, addr:67, wdata:2512043228, rdata:0, slverr:0
# ** Error: APB SVA: Invalid address but PSLVERR not asserted
#    Time: 5670 ns Started: 5670 ns  Scope: top.vif.a_slverr_on_invalid_addr File: ../tb/apb_if.sv Line: 76 Expr: pslverr
# UVM_INFO ../uvc/env/apb_ram_scoreboard.sv(29) @ 5690: uvm_test_top.env.s [SCO] SLV ERROR during WRITE OP
# ----------------------------------------------------------------
# UVM_INFO ../uvc/env/apb_ram_driver.sv(64) @ 5710: uvm_test_top.env.a.d [DRV] mode:writed, addr:65, wdata:2421750047, rdata:0, slverr:0
# ** Error: APB SVA: Invalid address but PSLVERR not asserted
#    Time: 5730 ns Started: 5730 ns  Scope: top.vif.a_slverr_on_invalid_addr File: ../tb/apb_if.sv Line: 76 Expr: pslverr
# UVM_INFO ../uvc/env/apb_ram_scoreboard.sv(29) @ 5750: uvm_test_top.env.s [SCO] SLV ERROR during WRITE OP
# ----------------------------------------------------------------
# UVM_INFO ../uvc/env/apb_ram_driver.sv(64) @ 5770: uvm_test_top.env.a.d [DRV] mode:writed, addr:54, wdata:3543838675, rdata:0, slverr:0
# ** Error: APB SVA: Invalid address but PSLVERR not asserted
#    Time: 5790 ns Started: 5790 ns  Scope: top.vif.a_slverr_on_invalid_addr File: ../tb/apb_if.sv Line: 76 Expr: pslverr
# UVM_INFO ../uvc/env/apb_ram_scoreboard.sv(29) @ 5810: uvm_test_top.env.s [SCO] SLV ERROR during WRITE OP
# ----------------------------------------------------------------
# UVM_INFO ../uvc/env/apb_ram_driver.sv(64) @ 5830: uvm_test_top.env.a.d [DRV] mode:writed, addr:39, wdata:2455390672, rdata:0, slverr:0
# ** Error: APB SVA: Invalid address but PSLVERR not asserted
#    Time: 5850 ns Started: 5850 ns  Scope: top.vif.a_slverr_on_invalid_addr File: ../tb/apb_if.sv Line: 76 Expr: pslverr
# UVM_INFO ../uvc/env/apb_ram_scoreboard.sv(29) @ 5870: uvm_test_top.env.s [SCO] SLV ERROR during WRITE OP
# ----------------------------------------------------------------
# UVM_INFO ../uvc/env/apb_ram_driver.sv(64) @ 5890: uvm_test_top.env.a.d [DRV] mode:writed, addr:57, wdata:4275940845, rdata:0, slverr:0
# ** Error: APB SVA: Invalid address but PSLVERR not asserted
#    Time: 5910 ns Started: 5910 ns  Scope: top.vif.a_slverr_on_invalid_addr File: ../tb/apb_if.sv Line: 76 Expr: pslverr
# UVM_INFO ../uvc/env/apb_ram_scoreboard.sv(29) @ 5930: uvm_test_top.env.s [SCO] SLV ERROR during WRITE OP
# ----------------------------------------------------------------
# UVM_INFO ../uvc/env/apb_ram_driver.sv(64) @ 5950: uvm_test_top.env.a.d [DRV] mode:writed, addr:60, wdata:326076968, rdata:0, slverr:0
# ** Error: APB SVA: Invalid address but PSLVERR not asserted
#    Time: 5970 ns Started: 5970 ns  Scope: top.vif.a_slverr_on_invalid_addr File: ../tb/apb_if.sv Line: 76 Expr: pslverr
# UVM_INFO ../uvc/env/apb_ram_scoreboard.sv(29) @ 5990: uvm_test_top.env.s [SCO] SLV ERROR during WRITE OP
# ----------------------------------------------------------------
# UVM_INFO ../uvc/env/apb_ram_driver.sv(64) @ 6010: uvm_test_top.env.a.d [DRV] mode:writed, addr:60, wdata:2230595295, rdata:0, slverr:0
# ** Error: APB SVA: Invalid address but PSLVERR not asserted
#    Time: 6030 ns Started: 6030 ns  Scope: top.vif.a_slverr_on_invalid_addr File: ../tb/apb_if.sv Line: 76 Expr: pslverr
# UVM_INFO ../uvc/env/apb_ram_scoreboard.sv(29) @ 6050: uvm_test_top.env.s [SCO] SLV ERROR during WRITE OP
# ----------------------------------------------------------------
# UVM_INFO ../uvc/env/apb_ram_driver.sv(64) @ 6070: uvm_test_top.env.a.d [DRV] mode:writed, addr:34, wdata:2725359598, rdata:0, slverr:0
# ** Error: APB SVA: Invalid address but PSLVERR not asserted
#    Time: 6090 ns Started: 6090 ns  Scope: top.vif.a_slverr_on_invalid_addr File: ../tb/apb_if.sv Line: 76 Expr: pslverr
# UVM_INFO ../uvc/env/apb_ram_scoreboard.sv(29) @ 6110: uvm_test_top.env.s [SCO] SLV ERROR during WRITE OP
# ----------------------------------------------------------------
# UVM_INFO ../uvc/env/apb_ram_driver.sv(64) @ 6130: uvm_test_top.env.a.d [DRV] mode:writed, addr:98, wdata:2308568196, rdata:0, slverr:0
# ** Error: APB SVA: Invalid address but PSLVERR not asserted
#    Time: 6150 ns Started: 6150 ns  Scope: top.vif.a_slverr_on_invalid_addr File: ../tb/apb_if.sv Line: 76 Expr: pslverr
# UVM_INFO ../uvc/env/apb_ram_scoreboard.sv(29) @ 6170: uvm_test_top.env.s [SCO] SLV ERROR during WRITE OP
# ----------------------------------------------------------------
# UVM_INFO ../uvc/env/apb_ram_driver.sv(64) @ 6190: uvm_test_top.env.a.d [DRV] mode:writed, addr:86, wdata:651093078, rdata:0, slverr:0
# ** Error: APB SVA: Invalid address but PSLVERR not asserted
#    Time: 6210 ns Started: 6210 ns  Scope: top.vif.a_slverr_on_invalid_addr File: ../tb/apb_if.sv Line: 76 Expr: pslverr
# UVM_INFO ../uvc/env/apb_ram_scoreboard.sv(29) @ 6230: uvm_test_top.env.s [SCO] SLV ERROR during WRITE OP
# ----------------------------------------------------------------
# UVM_INFO ../uvc/env/apb_ram_driver.sv(64) @ 6250: uvm_test_top.env.a.d [DRV] mode:writed, addr:89, wdata:701912914, rdata:0, slverr:0
# ** Error: APB SVA: Invalid address but PSLVERR not asserted
#    Time: 6270 ns Started: 6270 ns  Scope: top.vif.a_slverr_on_invalid_addr File: ../tb/apb_if.sv Line: 76 Expr: pslverr
# UVM_INFO ../uvc/env/apb_ram_scoreboard.sv(29) @ 6290: uvm_test_top.env.s [SCO] SLV ERROR during WRITE OP
# ----------------------------------------------------------------
# UVM_INFO ../uvc/env/apb_ram_driver.sv(64) @ 6310: uvm_test_top.env.a.d [DRV] mode:writed, addr:42, wdata:1258764651, rdata:0, slverr:0
# ** Error: APB SVA: Invalid address but PSLVERR not asserted
#    Time: 6330 ns Started: 6330 ns  Scope: top.vif.a_slverr_on_invalid_addr File: ../tb/apb_if.sv Line: 76 Expr: pslverr
# UVM_INFO ../uvc/env/apb_ram_scoreboard.sv(29) @ 6350: uvm_test_top.env.s [SCO] SLV ERROR during WRITE OP
# ----------------------------------------------------------------
# UVM_INFO ../uvc/env/apb_ram_driver.sv(64) @ 6370: uvm_test_top.env.a.d [DRV] mode:writed, addr:67, wdata:2675317075, rdata:0, slverr:0
# ** Error: APB SVA: Invalid address but PSLVERR not asserted
#    Time: 6390 ns Started: 6390 ns  Scope: top.vif.a_slverr_on_invalid_addr File: ../tb/apb_if.sv Line: 76 Expr: pslverr
# UVM_INFO ../uvc/env/apb_ram_scoreboard.sv(29) @ 6410: uvm_test_top.env.s [SCO] SLV ERROR during WRITE OP
# ----------------------------------------------------------------
# UVM_INFO ../uvc/env/apb_ram_driver.sv(64) @ 6430: uvm_test_top.env.a.d [DRV] mode:writed, addr:42, wdata:1930987503, rdata:0, slverr:0
# ** Error: APB SVA: Invalid address but PSLVERR not asserted
#    Time: 6450 ns Started: 6450 ns  Scope: top.vif.a_slverr_on_invalid_addr File: ../tb/apb_if.sv Line: 76 Expr: pslverr
# UVM_INFO ../uvc/env/apb_ram_scoreboard.sv(29) @ 6470: uvm_test_top.env.s [SCO] SLV ERROR during WRITE OP
# ----------------------------------------------------------------
# UVM_INFO ../uvc/env/apb_ram_driver.sv(64) @ 6490: uvm_test_top.env.a.d [DRV] mode:writed, addr:93, wdata:2200227099, rdata:0, slverr:0
# ** Error: APB SVA: Invalid address but PSLVERR not asserted
#    Time: 6510 ns Started: 6510 ns  Scope: top.vif.a_slverr_on_invalid_addr File: ../tb/apb_if.sv Line: 76 Expr: pslverr
# UVM_INFO ../uvc/env/apb_ram_scoreboard.sv(29) @ 6530: uvm_test_top.env.s [SCO] SLV ERROR during WRITE OP
# ----------------------------------------------------------------
# UVM_INFO ../uvc/env/apb_ram_driver.sv(64) @ 6550: uvm_test_top.env.a.d [DRV] mode:writed, addr:48, wdata:545298632, rdata:0, slverr:0
# ** Error: APB SVA: Invalid address but PSLVERR not asserted
#    Time: 6570 ns Started: 6570 ns  Scope: top.vif.a_slverr_on_invalid_addr File: ../tb/apb_if.sv Line: 76 Expr: pslverr
# UVM_INFO ../uvc/env/apb_ram_scoreboard.sv(29) @ 6590: uvm_test_top.env.s [SCO] SLV ERROR during WRITE OP
# ----------------------------------------------------------------
# UVM_INFO ../uvc/env/apb_ram_driver.sv(64) @ 6610: uvm_test_top.env.a.d [DRV] mode:writed, addr:47, wdata:3286523773, rdata:0, slverr:0
# ** Error: APB SVA: Invalid address but PSLVERR not asserted
#    Time: 6630 ns Started: 6630 ns  Scope: top.vif.a_slverr_on_invalid_addr File: ../tb/apb_if.sv Line: 76 Expr: pslverr
# UVM_INFO ../uvc/env/apb_ram_scoreboard.sv(29) @ 6650: uvm_test_top.env.s [SCO] SLV ERROR during WRITE OP
# ----------------------------------------------------------------
# UVM_INFO ../uvc/env/apb_ram_driver.sv(64) @ 6670: uvm_test_top.env.a.d [DRV] mode:writed, addr:83, wdata:1055755987, rdata:0, slverr:0
# ** Error: APB SVA: Invalid address but PSLVERR not asserted
#    Time: 6690 ns Started: 6690 ns  Scope: top.vif.a_slverr_on_invalid_addr File: ../tb/apb_if.sv Line: 76 Expr: pslverr
# UVM_INFO ../uvc/env/apb_ram_scoreboard.sv(29) @ 6710: uvm_test_top.env.s [SCO] SLV ERROR during WRITE OP
# ----------------------------------------------------------------
# UVM_INFO ../uvc/env/apb_ram_driver.sv(64) @ 6730: uvm_test_top.env.a.d [DRV] mode:writed, addr:59, wdata:78192278, rdata:0, slverr:0
# ** Error: APB SVA: Invalid address but PSLVERR not asserted
#    Time: 6750 ns Started: 6750 ns  Scope: top.vif.a_slverr_on_invalid_addr File: ../tb/apb_if.sv Line: 76 Expr: pslverr
# UVM_INFO ../uvc/env/apb_ram_scoreboard.sv(29) @ 6770: uvm_test_top.env.s [SCO] SLV ERROR during WRITE OP
# ----------------------------------------------------------------
# UVM_INFO ../uvc/env/apb_ram_driver.sv(64) @ 6790: uvm_test_top.env.a.d [DRV] mode:writed, addr:51, wdata:3810780570, rdata:0, slverr:0
# ** Error: APB SVA: Invalid address but PSLVERR not asserted
#    Time: 6810 ns Started: 6810 ns  Scope: top.vif.a_slverr_on_invalid_addr File: ../tb/apb_if.sv Line: 76 Expr: pslverr
# UVM_INFO ../uvc/env/apb_ram_scoreboard.sv(29) @ 6830: uvm_test_top.env.s [SCO] SLV ERROR during WRITE OP
# ----------------------------------------------------------------
# UVM_INFO ../uvc/env/apb_ram_driver.sv(64) @ 6850: uvm_test_top.env.a.d [DRV] mode:writed, addr:33, wdata:322757482, rdata:0, slverr:0
# ** Error: APB SVA: Invalid address but PSLVERR not asserted
#    Time: 6870 ns Started: 6870 ns  Scope: top.vif.a_slverr_on_invalid_addr File: ../tb/apb_if.sv Line: 76 Expr: pslverr
# UVM_INFO ../uvc/env/apb_ram_scoreboard.sv(29) @ 6890: uvm_test_top.env.s [SCO] SLV ERROR during WRITE OP
# ----------------------------------------------------------------
# UVM_INFO ../uvc/env/apb_ram_driver.sv(64) @ 6910: uvm_test_top.env.a.d [DRV] mode:writed, addr:78, wdata:86746718, rdata:0, slverr:0
# ** Error: APB SVA: Invalid address but PSLVERR not asserted
#    Time: 6930 ns Started: 6930 ns  Scope: top.vif.a_slverr_on_invalid_addr File: ../tb/apb_if.sv Line: 76 Expr: pslverr
# UVM_INFO ../uvc/env/apb_ram_scoreboard.sv(29) @ 6950: uvm_test_top.env.s [SCO] SLV ERROR during WRITE OP
# ----------------------------------------------------------------
# UVM_INFO ../uvc/env/apb_ram_driver.sv(64) @ 6970: uvm_test_top.env.a.d [DRV] mode:writed, addr:43, wdata:2478945088, rdata:0, slverr:0
# ** Error: APB SVA: Invalid address but PSLVERR not asserted
#    Time: 6990 ns Started: 6990 ns  Scope: top.vif.a_slverr_on_invalid_addr File: ../tb/apb_if.sv Line: 76 Expr: pslverr
# UVM_INFO ../uvc/env/apb_ram_scoreboard.sv(29) @ 7010: uvm_test_top.env.s [SCO] SLV ERROR during WRITE OP
# ----------------------------------------------------------------
# UVM_INFO ../uvc/env/apb_ram_driver.sv(64) @ 7030: uvm_test_top.env.a.d [DRV] mode:writed, addr:87, wdata:4077937275, rdata:0, slverr:0
# ** Error: APB SVA: Invalid address but PSLVERR not asserted
#    Time: 7050 ns Started: 7050 ns  Scope: top.vif.a_slverr_on_invalid_addr File: ../tb/apb_if.sv Line: 76 Expr: pslverr
# UVM_INFO ../uvc/env/apb_ram_scoreboard.sv(29) @ 7070: uvm_test_top.env.s [SCO] SLV ERROR during WRITE OP
# ----------------------------------------------------------------
# UVM_INFO ../uvc/env/apb_ram_driver.sv(64) @ 7090: uvm_test_top.env.a.d [DRV] mode:writed, addr:78, wdata:2148780082, rdata:0, slverr:0
# ** Error: APB SVA: Invalid address but PSLVERR not asserted
#    Time: 7110 ns Started: 7110 ns  Scope: top.vif.a_slverr_on_invalid_addr File: ../tb/apb_if.sv Line: 76 Expr: pslverr
# UVM_INFO ../uvc/env/apb_ram_scoreboard.sv(29) @ 7130: uvm_test_top.env.s [SCO] SLV ERROR during WRITE OP
# ----------------------------------------------------------------
# UVM_INFO ../uvc/env/apb_ram_driver.sv(64) @ 7150: uvm_test_top.env.a.d [DRV] mode:writed, addr:52, wdata:3687998549, rdata:0, slverr:0
# ** Error: APB SVA: Invalid address but PSLVERR not asserted
#    Time: 7170 ns Started: 7170 ns  Scope: top.vif.a_slverr_on_invalid_addr File: ../tb/apb_if.sv Line: 76 Expr: pslverr
# UVM_INFO ../uvc/env/apb_ram_scoreboard.sv(29) @ 7190: uvm_test_top.env.s [SCO] SLV ERROR during WRITE OP
# ----------------------------------------------------------------
# UVM_INFO ../uvc/env/apb_ram_driver.sv(64) @ 7210: uvm_test_top.env.a.d [DRV] mode:writed, addr:75, wdata:1969942284, rdata:0, slverr:0
# ** Error: APB SVA: Invalid address but PSLVERR not asserted
#    Time: 7230 ns Started: 7230 ns  Scope: top.vif.a_slverr_on_invalid_addr File: ../tb/apb_if.sv Line: 76 Expr: pslverr
# UVM_INFO ../uvc/env/apb_ram_scoreboard.sv(29) @ 7250: uvm_test_top.env.s [SCO] SLV ERROR during WRITE OP
# ----------------------------------------------------------------
# UVM_INFO ../uvc/env/apb_ram_driver.sv(64) @ 7270: uvm_test_top.env.a.d [DRV] mode:writed, addr:32, wdata:3337416416, rdata:0, slverr:0
# ** Error: APB SVA: Invalid address but PSLVERR not asserted
#    Time: 7290 ns Started: 7290 ns  Scope: top.vif.a_slverr_on_invalid_addr File: ../tb/apb_if.sv Line: 76 Expr: pslverr
# UVM_INFO ../uvc/env/apb_ram_scoreboard.sv(29) @ 7310: uvm_test_top.env.s [SCO] SLV ERROR during WRITE OP
# ----------------------------------------------------------------
# UVM_INFO ../uvc/env/apb_ram_driver.sv(64) @ 7330: uvm_test_top.env.a.d [DRV] mode:writed, addr:39, wdata:1710853968, rdata:0, slverr:0
# ** Error: APB SVA: Invalid address but PSLVERR not asserted
#    Time: 7350 ns Started: 7350 ns  Scope: top.vif.a_slverr_on_invalid_addr File: ../tb/apb_if.sv Line: 76 Expr: pslverr
# UVM_INFO ../uvc/env/apb_ram_scoreboard.sv(29) @ 7370: uvm_test_top.env.s [SCO] SLV ERROR during WRITE OP
# ----------------------------------------------------------------
# UVM_INFO ../uvc/env/apb_ram_driver.sv(64) @ 7390: uvm_test_top.env.a.d [DRV] mode:writed, addr:87, wdata:821409746, rdata:0, slverr:0
# ** Error: APB SVA: Invalid address but PSLVERR not asserted
#    Time: 7410 ns Started: 7410 ns  Scope: top.vif.a_slverr_on_invalid_addr File: ../tb/apb_if.sv Line: 76 Expr: pslverr
# UVM_INFO ../uvc/env/apb_ram_scoreboard.sv(29) @ 7430: uvm_test_top.env.s [SCO] SLV ERROR during WRITE OP
# ----------------------------------------------------------------
# UVM_INFO ../uvc/env/apb_ram_driver.sv(64) @ 7450: uvm_test_top.env.a.d [DRV] mode:writed, addr:59, wdata:153223450, rdata:0, slverr:0
# ** Error: APB SVA: Invalid address but PSLVERR not asserted
#    Time: 7470 ns Started: 7470 ns  Scope: top.vif.a_slverr_on_invalid_addr File: ../tb/apb_if.sv Line: 76 Expr: pslverr
# UVM_INFO ../uvc/env/apb_ram_scoreboard.sv(29) @ 7490: uvm_test_top.env.s [SCO] SLV ERROR during WRITE OP
# ----------------------------------------------------------------
# UVM_INFO ../uvc/env/apb_ram_driver.sv(64) @ 7510: uvm_test_top.env.a.d [DRV] mode:writed, addr:60, wdata:166857563, rdata:0, slverr:0
# ** Error: APB SVA: Invalid address but PSLVERR not asserted
#    Time: 7530 ns Started: 7530 ns  Scope: top.vif.a_slverr_on_invalid_addr File: ../tb/apb_if.sv Line: 76 Expr: pslverr
# UVM_INFO ../uvc/env/apb_ram_scoreboard.sv(29) @ 7550: uvm_test_top.env.s [SCO] SLV ERROR during WRITE OP
# ----------------------------------------------------------------
# UVM_INFO ../uvc/env/apb_ram_driver.sv(64) @ 7570: uvm_test_top.env.a.d [DRV] mode:writed, addr:50, wdata:664546674, rdata:0, slverr:0
# ** Error: APB SVA: Invalid address but PSLVERR not asserted
#    Time: 7590 ns Started: 7590 ns  Scope: top.vif.a_slverr_on_invalid_addr File: ../tb/apb_if.sv Line: 76 Expr: pslverr
# UVM_INFO ../uvc/env/apb_ram_scoreboard.sv(29) @ 7610: uvm_test_top.env.s [SCO] SLV ERROR during WRITE OP
# ----------------------------------------------------------------
# UVM_INFO ../uvc/env/apb_ram_driver.sv(64) @ 7630: uvm_test_top.env.a.d [DRV] mode:writed, addr:72, wdata:1030322138, rdata:0, slverr:0
# ** Error: APB SVA: Invalid address but PSLVERR not asserted
#    Time: 7650 ns Started: 7650 ns  Scope: top.vif.a_slverr_on_invalid_addr File: ../tb/apb_if.sv Line: 76 Expr: pslverr
# UVM_INFO ../uvc/env/apb_ram_scoreboard.sv(29) @ 7670: uvm_test_top.env.s [SCO] SLV ERROR during WRITE OP
# ----------------------------------------------------------------
# UVM_INFO ../uvc/env/apb_ram_driver.sv(64) @ 7690: uvm_test_top.env.a.d [DRV] mode:writed, addr:32, wdata:1988183800, rdata:0, slverr:0
# ** Error: APB SVA: Invalid address but PSLVERR not asserted
#    Time: 7710 ns Started: 7710 ns  Scope: top.vif.a_slverr_on_invalid_addr File: ../tb/apb_if.sv Line: 76 Expr: pslverr
# UVM_INFO ../uvc/env/apb_ram_scoreboard.sv(29) @ 7730: uvm_test_top.env.s [SCO] SLV ERROR during WRITE OP
# ----------------------------------------------------------------
# UVM_INFO ../uvc/env/apb_ram_driver.sv(64) @ 7750: uvm_test_top.env.a.d [DRV] mode:writed, addr:44, wdata:3840895145, rdata:0, slverr:0
# ** Error: APB SVA: Invalid address but PSLVERR not asserted
#    Time: 7770 ns Started: 7770 ns  Scope: top.vif.a_slverr_on_invalid_addr File: ../tb/apb_if.sv Line: 76 Expr: pslverr
# UVM_INFO ../uvc/env/apb_ram_scoreboard.sv(29) @ 7790: uvm_test_top.env.s [SCO] SLV ERROR during WRITE OP
# ----------------------------------------------------------------
# UVM_INFO ../uvc/env/apb_ram_driver.sv(64) @ 7810: uvm_test_top.env.a.d [DRV] mode:writed, addr:37, wdata:2011130809, rdata:0, slverr:0
# ** Error: APB SVA: Invalid address but PSLVERR not asserted
#    Time: 7830 ns Started: 7830 ns  Scope: top.vif.a_slverr_on_invalid_addr File: ../tb/apb_if.sv Line: 76 Expr: pslverr
# UVM_INFO ../uvc/env/apb_ram_scoreboard.sv(29) @ 7850: uvm_test_top.env.s [SCO] SLV ERROR during WRITE OP
# ----------------------------------------------------------------
# UVM_INFO ../uvc/env/apb_ram_driver.sv(64) @ 7870: uvm_test_top.env.a.d [DRV] mode:writed, addr:58, wdata:1150916601, rdata:0, slverr:0
# ** Error: APB SVA: Invalid address but PSLVERR not asserted
#    Time: 7890 ns Started: 7890 ns  Scope: top.vif.a_slverr_on_invalid_addr File: ../tb/apb_if.sv Line: 76 Expr: pslverr
# UVM_INFO ../uvc/env/apb_ram_scoreboard.sv(29) @ 7910: uvm_test_top.env.s [SCO] SLV ERROR during WRITE OP
# ----------------------------------------------------------------
# UVM_INFO ../uvc/env/apb_ram_driver.sv(64) @ 7930: uvm_test_top.env.a.d [DRV] mode:writed, addr:59, wdata:2825991358, rdata:0, slverr:0
# ** Error: APB SVA: Invalid address but PSLVERR not asserted
#    Time: 7950 ns Started: 7950 ns  Scope: top.vif.a_slverr_on_invalid_addr File: ../tb/apb_if.sv Line: 76 Expr: pslverr
# UVM_INFO ../uvc/env/apb_ram_scoreboard.sv(29) @ 7970: uvm_test_top.env.s [SCO] SLV ERROR during WRITE OP
# ----------------------------------------------------------------
# UVM_INFO ../uvc/env/apb_ram_driver.sv(64) @ 7990: uvm_test_top.env.a.d [DRV] mode:writed, addr:58, wdata:2548276334, rdata:0, slverr:0
# ** Error: APB SVA: Invalid address but PSLVERR not asserted
#    Time: 8010 ns Started: 8010 ns  Scope: top.vif.a_slverr_on_invalid_addr File: ../tb/apb_if.sv Line: 76 Expr: pslverr
# UVM_INFO ../uvc/env/apb_ram_scoreboard.sv(29) @ 8030: uvm_test_top.env.s [SCO] SLV ERROR during WRITE OP
# ----------------------------------------------------------------
# UVM_INFO ../uvc/env/apb_ram_driver.sv(64) @ 8050: uvm_test_top.env.a.d [DRV] mode:writed, addr:89, wdata:3590852060, rdata:0, slverr:0
# ** Error: APB SVA: Invalid address but PSLVERR not asserted
#    Time: 8070 ns Started: 8070 ns  Scope: top.vif.a_slverr_on_invalid_addr File: ../tb/apb_if.sv Line: 76 Expr: pslverr
# UVM_INFO ../uvc/env/apb_ram_scoreboard.sv(29) @ 8090: uvm_test_top.env.s [SCO] SLV ERROR during WRITE OP
# ----------------------------------------------------------------
# UVM_INFO ../uvc/env/apb_ram_driver.sv(64) @ 8110: uvm_test_top.env.a.d [DRV] mode:writed, addr:51, wdata:769091389, rdata:0, slverr:0
# ** Error: APB SVA: Invalid address but PSLVERR not asserted
#    Time: 8130 ns Started: 8130 ns  Scope: top.vif.a_slverr_on_invalid_addr File: ../tb/apb_if.sv Line: 76 Expr: pslverr
# UVM_INFO ../uvc/env/apb_ram_scoreboard.sv(29) @ 8150: uvm_test_top.env.s [SCO] SLV ERROR during WRITE OP
# ----------------------------------------------------------------
# UVM_INFO ../uvc/env/apb_ram_driver.sv(64) @ 8170: uvm_test_top.env.a.d [DRV] mode:writed, addr:47, wdata:3950128786, rdata:0, slverr:0
# ** Error: APB SVA: Invalid address but PSLVERR not asserted
#    Time: 8190 ns Started: 8190 ns  Scope: top.vif.a_slverr_on_invalid_addr File: ../tb/apb_if.sv Line: 76 Expr: pslverr
# UVM_INFO ../uvc/env/apb_ram_scoreboard.sv(29) @ 8210: uvm_test_top.env.s [SCO] SLV ERROR during WRITE OP
# ----------------------------------------------------------------
# UVM_INFO ../uvc/env/apb_ram_driver.sv(64) @ 8230: uvm_test_top.env.a.d [DRV] mode:writed, addr:90, wdata:2207862757, rdata:0, slverr:0
# ** Error: APB SVA: Invalid address but PSLVERR not asserted
#    Time: 8250 ns Started: 8250 ns  Scope: top.vif.a_slverr_on_invalid_addr File: ../tb/apb_if.sv Line: 76 Expr: pslverr
# UVM_INFO ../uvc/env/apb_ram_scoreboard.sv(29) @ 8270: uvm_test_top.env.s [SCO] SLV ERROR during WRITE OP
# ----------------------------------------------------------------
# UVM_INFO ../uvc/env/apb_ram_driver.sv(64) @ 8290: uvm_test_top.env.a.d [DRV] mode:writed, addr:53, wdata:3340501546, rdata:0, slverr:0
# ** Error: APB SVA: Invalid address but PSLVERR not asserted
#    Time: 8310 ns Started: 8310 ns  Scope: top.vif.a_slverr_on_invalid_addr File: ../tb/apb_if.sv Line: 76 Expr: pslverr
# UVM_INFO ../uvc/env/apb_ram_scoreboard.sv(29) @ 8330: uvm_test_top.env.s [SCO] SLV ERROR during WRITE OP
# ----------------------------------------------------------------
# UVM_INFO ../uvc/env/apb_ram_driver.sv(64) @ 8350: uvm_test_top.env.a.d [DRV] mode:writed, addr:52, wdata:3882506872, rdata:0, slverr:0
# ** Error: APB SVA: Invalid address but PSLVERR not asserted
#    Time: 8370 ns Started: 8370 ns  Scope: top.vif.a_slverr_on_invalid_addr File: ../tb/apb_if.sv Line: 76 Expr: pslverr
# UVM_INFO ../uvc/env/apb_ram_scoreboard.sv(29) @ 8390: uvm_test_top.env.s [SCO] SLV ERROR during WRITE OP
# ----------------------------------------------------------------
# UVM_INFO ../uvc/env/apb_ram_driver.sv(64) @ 8410: uvm_test_top.env.a.d [DRV] mode:writed, addr:88, wdata:1130505767, rdata:0, slverr:0
# ** Error: APB SVA: Invalid address but PSLVERR not asserted
#    Time: 8430 ns Started: 8430 ns  Scope: top.vif.a_slverr_on_invalid_addr File: ../tb/apb_if.sv Line: 76 Expr: pslverr
# UVM_INFO ../uvc/env/apb_ram_scoreboard.sv(29) @ 8450: uvm_test_top.env.s [SCO] SLV ERROR during WRITE OP
# ----------------------------------------------------------------
# UVM_INFO ../uvc/env/apb_ram_driver.sv(64) @ 8470: uvm_test_top.env.a.d [DRV] mode:writed, addr:55, wdata:4247768858, rdata:0, slverr:0
# ** Error: APB SVA: Invalid address but PSLVERR not asserted
#    Time: 8490 ns Started: 8490 ns  Scope: top.vif.a_slverr_on_invalid_addr File: ../tb/apb_if.sv Line: 76 Expr: pslverr
# UVM_INFO ../uvc/env/apb_ram_scoreboard.sv(29) @ 8510: uvm_test_top.env.s [SCO] SLV ERROR during WRITE OP
# ----------------------------------------------------------------
# UVM_INFO ../uvc/env/apb_ram_driver.sv(64) @ 8530: uvm_test_top.env.a.d [DRV] mode:writed, addr:97, wdata:1133814824, rdata:0, slverr:0
# ** Error: APB SVA: Invalid address but PSLVERR not asserted
#    Time: 8550 ns Started: 8550 ns  Scope: top.vif.a_slverr_on_invalid_addr File: ../tb/apb_if.sv Line: 76 Expr: pslverr
# UVM_INFO ../uvc/env/apb_ram_scoreboard.sv(29) @ 8570: uvm_test_top.env.s [SCO] SLV ERROR during WRITE OP
# ----------------------------------------------------------------
# UVM_INFO ../uvc/env/apb_ram_driver.sv(64) @ 8590: uvm_test_top.env.a.d [DRV] mode:writed, addr:57, wdata:3014625495, rdata:0, slverr:0
# ** Error: APB SVA: Invalid address but PSLVERR not asserted
#    Time: 8610 ns Started: 8610 ns  Scope: top.vif.a_slverr_on_invalid_addr File: ../tb/apb_if.sv Line: 76 Expr: pslverr
# UVM_INFO ../uvc/env/apb_ram_scoreboard.sv(29) @ 8630: uvm_test_top.env.s [SCO] SLV ERROR during WRITE OP
# ----------------------------------------------------------------
# UVM_INFO ../uvc/env/apb_ram_driver.sv(64) @ 8650: uvm_test_top.env.a.d [DRV] mode:writed, addr:41, wdata:2264520271, rdata:0, slverr:0
# ** Error: APB SVA: Invalid address but PSLVERR not asserted
#    Time: 8670 ns Started: 8670 ns  Scope: top.vif.a_slverr_on_invalid_addr File: ../tb/apb_if.sv Line: 76 Expr: pslverr
# UVM_INFO ../uvc/env/apb_ram_scoreboard.sv(29) @ 8690: uvm_test_top.env.s [SCO] SLV ERROR during WRITE OP
# ----------------------------------------------------------------
# UVM_INFO ../uvc/env/apb_ram_driver.sv(64) @ 8710: uvm_test_top.env.a.d [DRV] mode:writed, addr:56, wdata:310717168, rdata:0, slverr:0
# ** Error: APB SVA: Invalid address but PSLVERR not asserted
#    Time: 8730 ns Started: 8730 ns  Scope: top.vif.a_slverr_on_invalid_addr File: ../tb/apb_if.sv Line: 76 Expr: pslverr
# UVM_INFO ../uvc/env/apb_ram_scoreboard.sv(29) @ 8750: uvm_test_top.env.s [SCO] SLV ERROR during WRITE OP
# ----------------------------------------------------------------
# UVM_INFO ../uvc/env/apb_ram_driver.sv(64) @ 8770: uvm_test_top.env.a.d [DRV] mode:writed, addr:97, wdata:3688955785, rdata:0, slverr:0
# ** Error: APB SVA: Invalid address but PSLVERR not asserted
#    Time: 8790 ns Started: 8790 ns  Scope: top.vif.a_slverr_on_invalid_addr File: ../tb/apb_if.sv Line: 76 Expr: pslverr
# UVM_INFO ../uvc/env/apb_ram_scoreboard.sv(29) @ 8810: uvm_test_top.env.s [SCO] SLV ERROR during WRITE OP
# ----------------------------------------------------------------
# UVM_INFO ../uvc/env/apb_ram_driver.sv(64) @ 8830: uvm_test_top.env.a.d [DRV] mode:writed, addr:98, wdata:1183555303, rdata:0, slverr:0
# ** Error: APB SVA: Invalid address but PSLVERR not asserted
#    Time: 8850 ns Started: 8850 ns  Scope: top.vif.a_slverr_on_invalid_addr File: ../tb/apb_if.sv Line: 76 Expr: pslverr
# UVM_INFO ../uvc/env/apb_ram_scoreboard.sv(29) @ 8870: uvm_test_top.env.s [SCO] SLV ERROR during WRITE OP
# ----------------------------------------------------------------
# UVM_INFO ../uvc/env/apb_ram_driver.sv(64) @ 8890: uvm_test_top.env.a.d [DRV] mode:writed, addr:59, wdata:2058902554, rdata:0, slverr:0
# ** Error: APB SVA: Invalid address but PSLVERR not asserted
#    Time: 8910 ns Started: 8910 ns  Scope: top.vif.a_slverr_on_invalid_addr File: ../tb/apb_if.sv Line: 76 Expr: pslverr
# UVM_INFO ../uvc/env/apb_ram_scoreboard.sv(29) @ 8930: uvm_test_top.env.s [SCO] SLV ERROR during WRITE OP
# ----------------------------------------------------------------
# UVM_INFO ../uvc/env/apb_ram_driver.sv(64) @ 8950: uvm_test_top.env.a.d [DRV] mode:writed, addr:66, wdata:4023841771, rdata:0, slverr:0
# ** Error: APB SVA: Invalid address but PSLVERR not asserted
#    Time: 8970 ns Started: 8970 ns  Scope: top.vif.a_slverr_on_invalid_addr File: ../tb/apb_if.sv Line: 76 Expr: pslverr
# UVM_INFO ../uvc/env/apb_ram_scoreboard.sv(29) @ 8990: uvm_test_top.env.s [SCO] SLV ERROR during WRITE OP
# ----------------------------------------------------------------
# UVM_INFO ../uvc/env/apb_ram_driver.sv(64) @ 9010: uvm_test_top.env.a.d [DRV] mode:writed, addr:79, wdata:2954956876, rdata:0, slverr:0
# ** Error: APB SVA: Invalid address but PSLVERR not asserted
#    Time: 9030 ns Started: 9030 ns  Scope: top.vif.a_slverr_on_invalid_addr File: ../tb/apb_if.sv Line: 76 Expr: pslverr
# UVM_INFO ../uvc/env/apb_ram_scoreboard.sv(29) @ 9050: uvm_test_top.env.s [SCO] SLV ERROR during WRITE OP
# ----------------------------------------------------------------
# UVM_INFO ../uvc/env/apb_ram_driver.sv(64) @ 9070: uvm_test_top.env.a.d [DRV] mode:writed, addr:67, wdata:2223237463, rdata:0, slverr:0
# ** Error: APB SVA: Invalid address but PSLVERR not asserted
#    Time: 9090 ns Started: 9090 ns  Scope: top.vif.a_slverr_on_invalid_addr File: ../tb/apb_if.sv Line: 76 Expr: pslverr
# UVM_INFO ../uvc/env/apb_ram_scoreboard.sv(29) @ 9110: uvm_test_top.env.s [SCO] SLV ERROR during WRITE OP
# ----------------------------------------------------------------
# UVM_INFO ../uvc/env/apb_ram_driver.sv(64) @ 9130: uvm_test_top.env.a.d [DRV] mode:writed, addr:69, wdata:2974829014, rdata:0, slverr:0
# ** Error: APB SVA: Invalid address but PSLVERR not asserted
#    Time: 9150 ns Started: 9150 ns  Scope: top.vif.a_slverr_on_invalid_addr File: ../tb/apb_if.sv Line: 76 Expr: pslverr
# UVM_INFO ../uvc/env/apb_ram_scoreboard.sv(29) @ 9170: uvm_test_top.env.s [SCO] SLV ERROR during WRITE OP
# ----------------------------------------------------------------
# UVM_INFO ../uvc/env/apb_ram_driver.sv(64) @ 9190: uvm_test_top.env.a.d [DRV] mode:writed, addr:54, wdata:1192269762, rdata:0, slverr:0
# ** Error: APB SVA: Invalid address but PSLVERR not asserted
#    Time: 9210 ns Started: 9210 ns  Scope: top.vif.a_slverr_on_invalid_addr File: ../tb/apb_if.sv Line: 76 Expr: pslverr
# UVM_INFO ../uvc/env/apb_ram_scoreboard.sv(29) @ 9230: uvm_test_top.env.s [SCO] SLV ERROR during WRITE OP
# ----------------------------------------------------------------
# UVM_INFO ../uvc/env/apb_ram_driver.sv(64) @ 9250: uvm_test_top.env.a.d [DRV] mode:writed, addr:92, wdata:1907849944, rdata:0, slverr:0
# ** Error: APB SVA: Invalid address but PSLVERR not asserted
#    Time: 9270 ns Started: 9270 ns  Scope: top.vif.a_slverr_on_invalid_addr File: ../tb/apb_if.sv Line: 76 Expr: pslverr
# UVM_INFO ../uvc/env/apb_ram_scoreboard.sv(29) @ 9290: uvm_test_top.env.s [SCO] SLV ERROR during WRITE OP
# ----------------------------------------------------------------
# UVM_INFO ../uvc/env/apb_ram_driver.sv(64) @ 9310: uvm_test_top.env.a.d [DRV] mode:writed, addr:47, wdata:2221954395, rdata:0, slverr:0
# ** Error: APB SVA: Invalid address but PSLVERR not asserted
#    Time: 9330 ns Started: 9330 ns  Scope: top.vif.a_slverr_on_invalid_addr File: ../tb/apb_if.sv Line: 76 Expr: pslverr
# UVM_INFO ../uvc/env/apb_ram_scoreboard.sv(29) @ 9350: uvm_test_top.env.s [SCO] SLV ERROR during WRITE OP
# ----------------------------------------------------------------
# UVM_INFO ../uvc/env/apb_ram_driver.sv(64) @ 9370: uvm_test_top.env.a.d [DRV] mode:writed, addr:39, wdata:2175067410, rdata:0, slverr:0
# ** Error: APB SVA: Invalid address but PSLVERR not asserted
#    Time: 9390 ns Started: 9390 ns  Scope: top.vif.a_slverr_on_invalid_addr File: ../tb/apb_if.sv Line: 76 Expr: pslverr
# UVM_INFO ../uvc/env/apb_ram_scoreboard.sv(29) @ 9410: uvm_test_top.env.s [SCO] SLV ERROR during WRITE OP
# ----------------------------------------------------------------
# UVM_INFO ../uvc/env/apb_ram_driver.sv(64) @ 9430: uvm_test_top.env.a.d [DRV] mode:writed, addr:59, wdata:3335452793, rdata:0, slverr:0
# ** Error: APB SVA: Invalid address but PSLVERR not asserted
#    Time: 9450 ns Started: 9450 ns  Scope: top.vif.a_slverr_on_invalid_addr File: ../tb/apb_if.sv Line: 76 Expr: pslverr
# UVM_INFO ../uvc/env/apb_ram_scoreboard.sv(29) @ 9470: uvm_test_top.env.s [SCO] SLV ERROR during WRITE OP
# ----------------------------------------------------------------
# UVM_INFO ../uvc/env/apb_ram_driver.sv(64) @ 9490: uvm_test_top.env.a.d [DRV] mode:writed, addr:48, wdata:3411786402, rdata:0, slverr:0
# ** Error: APB SVA: Invalid address but PSLVERR not asserted
#    Time: 9510 ns Started: 9510 ns  Scope: top.vif.a_slverr_on_invalid_addr File: ../tb/apb_if.sv Line: 76 Expr: pslverr
# UVM_INFO ../uvc/env/apb_ram_scoreboard.sv(29) @ 9530: uvm_test_top.env.s [SCO] SLV ERROR during WRITE OP
# ----------------------------------------------------------------
# UVM_INFO ../uvc/env/apb_ram_driver.sv(64) @ 9550: uvm_test_top.env.a.d [DRV] mode:writed, addr:48, wdata:1787588036, rdata:0, slverr:0
# ** Error: APB SVA: Invalid address but PSLVERR not asserted
#    Time: 9570 ns Started: 9570 ns  Scope: top.vif.a_slverr_on_invalid_addr File: ../tb/apb_if.sv Line: 76 Expr: pslverr
# UVM_INFO ../uvc/env/apb_ram_scoreboard.sv(29) @ 9590: uvm_test_top.env.s [SCO] SLV ERROR during WRITE OP
# ----------------------------------------------------------------
# UVM_INFO ../uvc/env/apb_ram_driver.sv(64) @ 9610: uvm_test_top.env.a.d [DRV] mode:writed, addr:82, wdata:2659618988, rdata:0, slverr:0
# ** Error: APB SVA: Invalid address but PSLVERR not asserted
#    Time: 9630 ns Started: 9630 ns  Scope: top.vif.a_slverr_on_invalid_addr File: ../tb/apb_if.sv Line: 76 Expr: pslverr
# UVM_INFO ../uvc/env/apb_ram_scoreboard.sv(29) @ 9650: uvm_test_top.env.s [SCO] SLV ERROR during WRITE OP
# ----------------------------------------------------------------
# UVM_INFO ../uvc/env/apb_ram_driver.sv(64) @ 9670: uvm_test_top.env.a.d [DRV] mode:writed, addr:67, wdata:1659277432, rdata:0, slverr:0
# ** Error: APB SVA: Invalid address but PSLVERR not asserted
#    Time: 9690 ns Started: 9690 ns  Scope: top.vif.a_slverr_on_invalid_addr File: ../tb/apb_if.sv Line: 76 Expr: pslverr
# UVM_INFO ../uvc/env/apb_ram_scoreboard.sv(29) @ 9710: uvm_test_top.env.s [SCO] SLV ERROR during WRITE OP
# ----------------------------------------------------------------
# UVM_INFO ../uvc/env/apb_ram_driver.sv(64) @ 9730: uvm_test_top.env.a.d [DRV] mode:writed, addr:42, wdata:3936361046, rdata:0, slverr:0
# ** Error: APB SVA: Invalid address but PSLVERR not asserted
#    Time: 9750 ns Started: 9750 ns  Scope: top.vif.a_slverr_on_invalid_addr File: ../tb/apb_if.sv Line: 76 Expr: pslverr
# UVM_INFO ../uvc/env/apb_ram_scoreboard.sv(29) @ 9770: uvm_test_top.env.s [SCO] SLV ERROR during WRITE OP
# ----------------------------------------------------------------
# UVM_INFO ../uvc/env/apb_ram_driver.sv(64) @ 9790: uvm_test_top.env.a.d [DRV] mode:writed, addr:98, wdata:1794837671, rdata:0, slverr:0
# ** Error: APB SVA: Invalid address but PSLVERR not asserted
#    Time: 9810 ns Started: 9810 ns  Scope: top.vif.a_slverr_on_invalid_addr File: ../tb/apb_if.sv Line: 76 Expr: pslverr
# UVM_INFO ../uvc/env/apb_ram_scoreboard.sv(29) @ 9830: uvm_test_top.env.s [SCO] SLV ERROR during WRITE OP
# ----------------------------------------------------------------
# UVM_INFO ../uvc/env/apb_ram_driver.sv(64) @ 9850: uvm_test_top.env.a.d [DRV] mode:writed, addr:92, wdata:3710513179, rdata:0, slverr:0
# ** Error: APB SVA: Invalid address but PSLVERR not asserted
#    Time: 9870 ns Started: 9870 ns  Scope: top.vif.a_slverr_on_invalid_addr File: ../tb/apb_if.sv Line: 76 Expr: pslverr
# UVM_INFO ../uvc/env/apb_ram_scoreboard.sv(29) @ 9890: uvm_test_top.env.s [SCO] SLV ERROR during WRITE OP
# ----------------------------------------------------------------
# UVM_INFO ../uvc/env/apb_ram_driver.sv(64) @ 9910: uvm_test_top.env.a.d [DRV] mode:writed, addr:86, wdata:3640719809, rdata:0, slverr:0
# ** Error: APB SVA: Invalid address but PSLVERR not asserted
#    Time: 9930 ns Started: 9930 ns  Scope: top.vif.a_slverr_on_invalid_addr File: ../tb/apb_if.sv Line: 76 Expr: pslverr
# UVM_INFO ../uvc/env/apb_ram_scoreboard.sv(29) @ 9950: uvm_test_top.env.s [SCO] SLV ERROR during WRITE OP
# ----------------------------------------------------------------
# UVM_INFO ../uvc/env/apb_ram_driver.sv(64) @ 9970: uvm_test_top.env.a.d [DRV] mode:writed, addr:37, wdata:787977165, rdata:0, slverr:0
# ** Error: APB SVA: Invalid address but PSLVERR not asserted
#    Time: 9990 ns Started: 9990 ns  Scope: top.vif.a_slverr_on_invalid_addr File: ../tb/apb_if.sv Line: 76 Expr: pslverr
# UVM_INFO ../uvc/env/apb_ram_scoreboard.sv(29) @ 10010: uvm_test_top.env.s [SCO] SLV ERROR during WRITE OP
# ----------------------------------------------------------------
# UVM_INFO ../uvc/env/apb_ram_driver.sv(64) @ 10030: uvm_test_top.env.a.d [DRV] mode:writed, addr:67, wdata:2345142233, rdata:0, slverr:0
# ** Error: APB SVA: Invalid address but PSLVERR not asserted
#    Time: 10050 ns Started: 10050 ns  Scope: top.vif.a_slverr_on_invalid_addr File: ../tb/apb_if.sv Line: 76 Expr: pslverr
# UVM_INFO ../uvc/env/apb_ram_scoreboard.sv(29) @ 10070: uvm_test_top.env.s [SCO] SLV ERROR during WRITE OP
# ----------------------------------------------------------------
# UVM_INFO ../uvc/env/apb_ram_driver.sv(64) @ 10090: uvm_test_top.env.a.d [DRV] mode:writed, addr:95, wdata:801649942, rdata:0, slverr:0
# ** Error: APB SVA: Invalid address but PSLVERR not asserted
#    Time: 10110 ns Started: 10110 ns  Scope: top.vif.a_slverr_on_invalid_addr File: ../tb/apb_if.sv Line: 76 Expr: pslverr
# UVM_INFO ../uvc/env/apb_ram_scoreboard.sv(29) @ 10130: uvm_test_top.env.s [SCO] SLV ERROR during WRITE OP
# ----------------------------------------------------------------
# UVM_INFO ../uvc/env/apb_ram_driver.sv(64) @ 10150: uvm_test_top.env.a.d [DRV] mode:writed, addr:66, wdata:2006104193, rdata:0, slverr:0
# ** Error: APB SVA: Invalid address but PSLVERR not asserted
#    Time: 10170 ns Started: 10170 ns  Scope: top.vif.a_slverr_on_invalid_addr File: ../tb/apb_if.sv Line: 76 Expr: pslverr
# UVM_INFO ../uvc/env/apb_ram_scoreboard.sv(29) @ 10190: uvm_test_top.env.s [SCO] SLV ERROR during WRITE OP
# ----------------------------------------------------------------
# UVM_INFO ../uvc/env/apb_ram_driver.sv(64) @ 10210: uvm_test_top.env.a.d [DRV] mode:writed, addr:49, wdata:1476042363, rdata:0, slverr:0
# ** Error: APB SVA: Invalid address but PSLVERR not asserted
#    Time: 10230 ns Started: 10230 ns  Scope: top.vif.a_slverr_on_invalid_addr File: ../tb/apb_if.sv Line: 76 Expr: pslverr
# UVM_INFO ../uvc/env/apb_ram_scoreboard.sv(29) @ 10250: uvm_test_top.env.s [SCO] SLV ERROR during WRITE OP
# ----------------------------------------------------------------
# UVM_INFO ../uvc/env/apb_ram_driver.sv(64) @ 10270: uvm_test_top.env.a.d [DRV] mode:writed, addr:64, wdata:3518621329, rdata:0, slverr:0
# ** Error: APB SVA: Invalid address but PSLVERR not asserted
#    Time: 10290 ns Started: 10290 ns  Scope: top.vif.a_slverr_on_invalid_addr File: ../tb/apb_if.sv Line: 76 Expr: pslverr
# UVM_INFO ../uvc/env/apb_ram_scoreboard.sv(29) @ 10310: uvm_test_top.env.s [SCO] SLV ERROR during WRITE OP
# ----------------------------------------------------------------
# UVM_INFO ../uvc/env/apb_ram_driver.sv(64) @ 10330: uvm_test_top.env.a.d [DRV] mode:writed, addr:75, wdata:2137532133, rdata:0, slverr:0
# ** Error: APB SVA: Invalid address but PSLVERR not asserted
#    Time: 10350 ns Started: 10350 ns  Scope: top.vif.a_slverr_on_invalid_addr File: ../tb/apb_if.sv Line: 76 Expr: pslverr
# UVM_INFO ../uvc/env/apb_ram_scoreboard.sv(29) @ 10370: uvm_test_top.env.s [SCO] SLV ERROR during WRITE OP
# ----------------------------------------------------------------
# UVM_INFO ../uvc/env/apb_ram_driver.sv(64) @ 10390: uvm_test_top.env.a.d [DRV] mode:writed, addr:52, wdata:2776129333, rdata:0, slverr:0
# ** Error: APB SVA: Invalid address but PSLVERR not asserted
#    Time: 10410 ns Started: 10410 ns  Scope: top.vif.a_slverr_on_invalid_addr File: ../tb/apb_if.sv Line: 76 Expr: pslverr
# UVM_INFO ../uvc/env/apb_ram_scoreboard.sv(29) @ 10430: uvm_test_top.env.s [SCO] SLV ERROR during WRITE OP
# ----------------------------------------------------------------
# UVM_INFO ../uvc/env/apb_ram_driver.sv(64) @ 10450: uvm_test_top.env.a.d [DRV] mode:writed, addr:63, wdata:3262606895, rdata:0, slverr:0
# ** Error: APB SVA: Invalid address but PSLVERR not asserted
#    Time: 10470 ns Started: 10470 ns  Scope: top.vif.a_slverr_on_invalid_addr File: ../tb/apb_if.sv Line: 76 Expr: pslverr
# UVM_INFO ../uvc/env/apb_ram_scoreboard.sv(29) @ 10490: uvm_test_top.env.s [SCO] SLV ERROR during WRITE OP
# ----------------------------------------------------------------
# UVM_INFO ../uvc/env/apb_ram_driver.sv(64) @ 10510: uvm_test_top.env.a.d [DRV] mode:writed, addr:69, wdata:3261359776, rdata:0, slverr:0
# ** Error: APB SVA: Invalid address but PSLVERR not asserted
#    Time: 10530 ns Started: 10530 ns  Scope: top.vif.a_slverr_on_invalid_addr File: ../tb/apb_if.sv Line: 76 Expr: pslverr
# UVM_INFO ../uvc/env/apb_ram_scoreboard.sv(29) @ 10550: uvm_test_top.env.s [SCO] SLV ERROR during WRITE OP
# ----------------------------------------------------------------
# UVM_INFO ../uvc/env/apb_ram_driver.sv(64) @ 10570: uvm_test_top.env.a.d [DRV] mode:writed, addr:66, wdata:527631564, rdata:0, slverr:0
# ** Error: APB SVA: Invalid address but PSLVERR not asserted
#    Time: 10590 ns Started: 10590 ns  Scope: top.vif.a_slverr_on_invalid_addr File: ../tb/apb_if.sv Line: 76 Expr: pslverr
# UVM_INFO ../uvc/env/apb_ram_scoreboard.sv(29) @ 10610: uvm_test_top.env.s [SCO] SLV ERROR during WRITE OP
# ----------------------------------------------------------------
# UVM_INFO ../uvc/env/apb_ram_driver.sv(64) @ 10630: uvm_test_top.env.a.d [DRV] mode:writed, addr:51, wdata:2087854648, rdata:0, slverr:0
# ** Error: APB SVA: Invalid address but PSLVERR not asserted
#    Time: 10650 ns Started: 10650 ns  Scope: top.vif.a_slverr_on_invalid_addr File: ../tb/apb_if.sv Line: 76 Expr: pslverr
# UVM_INFO ../uvc/env/apb_ram_scoreboard.sv(29) @ 10670: uvm_test_top.env.s [SCO] SLV ERROR during WRITE OP
# ----------------------------------------------------------------
# UVM_INFO ../uvc/env/apb_ram_driver.sv(64) @ 10690: uvm_test_top.env.a.d [DRV] mode:writed, addr:87, wdata:173185429, rdata:0, slverr:0
# ** Error: APB SVA: Invalid address but PSLVERR not asserted
#    Time: 10710 ns Started: 10710 ns  Scope: top.vif.a_slverr_on_invalid_addr File: ../tb/apb_if.sv Line: 76 Expr: pslverr
# UVM_INFO ../uvc/env/apb_ram_scoreboard.sv(29) @ 10730: uvm_test_top.env.s [SCO] SLV ERROR during WRITE OP
# ----------------------------------------------------------------
# UVM_INFO ../uvc/env/apb_ram_driver.sv(64) @ 10750: uvm_test_top.env.a.d [DRV] mode:writed, addr:91, wdata:554971349, rdata:0, slverr:0
# ** Error: APB SVA: Invalid address but PSLVERR not asserted
#    Time: 10770 ns Started: 10770 ns  Scope: top.vif.a_slverr_on_invalid_addr File: ../tb/apb_if.sv Line: 76 Expr: pslverr
# UVM_INFO ../uvc/env/apb_ram_scoreboard.sv(29) @ 10790: uvm_test_top.env.s [SCO] SLV ERROR during WRITE OP
# ----------------------------------------------------------------
# UVM_INFO ../uvc/env/apb_ram_driver.sv(64) @ 10810: uvm_test_top.env.a.d [DRV] mode:writed, addr:62, wdata:3614734715, rdata:0, slverr:0
# ** Error: APB SVA: Invalid address but PSLVERR not asserted
#    Time: 10830 ns Started: 10830 ns  Scope: top.vif.a_slverr_on_invalid_addr File: ../tb/apb_if.sv Line: 76 Expr: pslverr
# UVM_INFO ../uvc/env/apb_ram_scoreboard.sv(29) @ 10850: uvm_test_top.env.s [SCO] SLV ERROR during WRITE OP
# ----------------------------------------------------------------
# UVM_INFO ../uvc/env/apb_ram_driver.sv(64) @ 10870: uvm_test_top.env.a.d [DRV] mode:writed, addr:72, wdata:235311237, rdata:0, slverr:0
# ** Error: APB SVA: Invalid address but PSLVERR not asserted
#    Time: 10890 ns Started: 10890 ns  Scope: top.vif.a_slverr_on_invalid_addr File: ../tb/apb_if.sv Line: 76 Expr: pslverr
# UVM_INFO ../uvc/env/apb_ram_scoreboard.sv(29) @ 10910: uvm_test_top.env.s [SCO] SLV ERROR during WRITE OP
# ----------------------------------------------------------------
# UVM_INFO ../uvc/env/apb_ram_driver.sv(64) @ 10930: uvm_test_top.env.a.d [DRV] mode:writed, addr:50, wdata:2476399168, rdata:0, slverr:0
# ** Error: APB SVA: Invalid address but PSLVERR not asserted
#    Time: 10950 ns Started: 10950 ns  Scope: top.vif.a_slverr_on_invalid_addr File: ../tb/apb_if.sv Line: 76 Expr: pslverr
# UVM_INFO ../uvc/env/apb_ram_scoreboard.sv(29) @ 10970: uvm_test_top.env.s [SCO] SLV ERROR during WRITE OP
# ----------------------------------------------------------------
# UVM_INFO ../uvc/env/apb_ram_driver.sv(64) @ 10990: uvm_test_top.env.a.d [DRV] mode:writed, addr:47, wdata:2956639403, rdata:0, slverr:0
# ** Error: APB SVA: Invalid address but PSLVERR not asserted
#    Time: 11010 ns Started: 11010 ns  Scope: top.vif.a_slverr_on_invalid_addr File: ../tb/apb_if.sv Line: 76 Expr: pslverr
# UVM_INFO ../uvc/env/apb_ram_scoreboard.sv(29) @ 11030: uvm_test_top.env.s [SCO] SLV ERROR during WRITE OP
# ----------------------------------------------------------------
# UVM_INFO ../uvc/env/apb_ram_driver.sv(64) @ 11050: uvm_test_top.env.a.d [DRV] mode:writed, addr:41, wdata:1278688331, rdata:0, slverr:0
# ** Error: APB SVA: Invalid address but PSLVERR not asserted
#    Time: 11070 ns Started: 11070 ns  Scope: top.vif.a_slverr_on_invalid_addr File: ../tb/apb_if.sv Line: 76 Expr: pslverr
# UVM_INFO ../uvc/env/apb_ram_scoreboard.sv(29) @ 11090: uvm_test_top.env.s [SCO] SLV ERROR during WRITE OP
# ----------------------------------------------------------------
# UVM_INFO ../uvc/env/apb_ram_driver.sv(64) @ 11110: uvm_test_top.env.a.d [DRV] mode:writed, addr:89, wdata:1113423029, rdata:0, slverr:0
# ** Error: APB SVA: Invalid address but PSLVERR not asserted
#    Time: 11130 ns Started: 11130 ns  Scope: top.vif.a_slverr_on_invalid_addr File: ../tb/apb_if.sv Line: 76 Expr: pslverr
# UVM_INFO ../uvc/env/apb_ram_scoreboard.sv(29) @ 11150: uvm_test_top.env.s [SCO] SLV ERROR during WRITE OP
# ----------------------------------------------------------------
# UVM_INFO ../uvc/env/apb_ram_driver.sv(64) @ 11170: uvm_test_top.env.a.d [DRV] mode:writed, addr:35, wdata:684610537, rdata:0, slverr:0
# ** Error: APB SVA: Invalid address but PSLVERR not asserted
#    Time: 11190 ns Started: 11190 ns  Scope: top.vif.a_slverr_on_invalid_addr File: ../tb/apb_if.sv Line: 76 Expr: pslverr
# UVM_INFO ../uvc/env/apb_ram_scoreboard.sv(29) @ 11210: uvm_test_top.env.s [SCO] SLV ERROR during WRITE OP
# ----------------------------------------------------------------
# UVM_INFO ../uvc/env/apb_ram_driver.sv(64) @ 11230: uvm_test_top.env.a.d [DRV] mode:writed, addr:81, wdata:2446717284, rdata:0, slverr:0
# ** Error: APB SVA: Invalid address but PSLVERR not asserted
#    Time: 11250 ns Started: 11250 ns  Scope: top.vif.a_slverr_on_invalid_addr File: ../tb/apb_if.sv Line: 76 Expr: pslverr
# UVM_INFO ../uvc/env/apb_ram_scoreboard.sv(29) @ 11270: uvm_test_top.env.s [SCO] SLV ERROR during WRITE OP
# ----------------------------------------------------------------
# UVM_INFO ../uvc/env/apb_ram_driver.sv(64) @ 11290: uvm_test_top.env.a.d [DRV] mode:writed, addr:44, wdata:3395233769, rdata:0, slverr:0
# ** Error: APB SVA: Invalid address but PSLVERR not asserted
#    Time: 11310 ns Started: 11310 ns  Scope: top.vif.a_slverr_on_invalid_addr File: ../tb/apb_if.sv Line: 76 Expr: pslverr
# UVM_INFO ../uvc/env/apb_ram_scoreboard.sv(29) @ 11330: uvm_test_top.env.s [SCO] SLV ERROR during WRITE OP
# ----------------------------------------------------------------
# UVM_INFO ../uvc/env/apb_ram_driver.sv(64) @ 11350: uvm_test_top.env.a.d [DRV] mode:writed, addr:38, wdata:1174950360, rdata:0, slverr:0
# ** Error: APB SVA: Invalid address but PSLVERR not asserted
#    Time: 11370 ns Started: 11370 ns  Scope: top.vif.a_slverr_on_invalid_addr File: ../tb/apb_if.sv Line: 76 Expr: pslverr
# UVM_INFO ../uvc/env/apb_ram_scoreboard.sv(29) @ 11390: uvm_test_top.env.s [SCO] SLV ERROR during WRITE OP
# ----------------------------------------------------------------
# UVM_INFO ../uvc/env/apb_ram_driver.sv(64) @ 11410: uvm_test_top.env.a.d [DRV] mode:writed, addr:74, wdata:3603049644, rdata:0, slverr:0
# ** Error: APB SVA: Invalid address but PSLVERR not asserted
#    Time: 11430 ns Started: 11430 ns  Scope: top.vif.a_slverr_on_invalid_addr File: ../tb/apb_if.sv Line: 76 Expr: pslverr
# UVM_INFO ../uvc/env/apb_ram_scoreboard.sv(29) @ 11450: uvm_test_top.env.s [SCO] SLV ERROR during WRITE OP
# ----------------------------------------------------------------
# UVM_INFO ../uvc/env/apb_ram_driver.sv(64) @ 11470: uvm_test_top.env.a.d [DRV] mode:writed, addr:39, wdata:1775645361, rdata:0, slverr:0
# ** Error: APB SVA: Invalid address but PSLVERR not asserted
#    Time: 11490 ns Started: 11490 ns  Scope: top.vif.a_slverr_on_invalid_addr File: ../tb/apb_if.sv Line: 76 Expr: pslverr
# UVM_INFO ../uvc/env/apb_ram_scoreboard.sv(29) @ 11510: uvm_test_top.env.s [SCO] SLV ERROR during WRITE OP
# ----------------------------------------------------------------
# UVM_INFO ../uvc/env/apb_ram_driver.sv(64) @ 11530: uvm_test_top.env.a.d [DRV] mode:writed, addr:94, wdata:376497910, rdata:0, slverr:0
# ** Error: APB SVA: Invalid address but PSLVERR not asserted
#    Time: 11550 ns Started: 11550 ns  Scope: top.vif.a_slverr_on_invalid_addr File: ../tb/apb_if.sv Line: 76 Expr: pslverr
# UVM_INFO ../uvc/env/apb_ram_scoreboard.sv(29) @ 11570: uvm_test_top.env.s [SCO] SLV ERROR during WRITE OP
